(1677782809.201907) can0 236#0000000000000000
(1677782809.202112) can0 237#0000000000000000
(1677782809.202361) can0 238#0000000000000000
(1677782809.212369) can0 310#2000000000000000
(1677782809.212506) can0 263#282828282828
(1677782809.226858) can0 1F4#0000000000000000
(1677782809.227110) can0 1F5#0000000000000000
(1677782809.227358) can0 1F6#0000000000000000
(1677782809.237385) can0 310#2000000000000000
(1677782809.237646) can0 270#0000000000000000
(1677782809.237756) can0 272#000000000000
(1677782809.238036) can0 555#0000000003000000
(1677782809.238471) can0 271#00000000001E
(1677782809.238674) can0 264#310200000031
(1677782809.251856) can0 1FA#0000000000000000
(1677782809.252108) can0 1FB#0000000000000000
(1677782809.252360) can0 1FC#0000000000000000
(1677782809.262346) can0 310#2000000000000000
(1677782809.262518) can0 265#000034000000
(1677782809.276874) can0 200#0000000000000000
(1677782809.277129) can0 201#0000000000000000
(1677782809.277374) can0 202#0000000000000000
(1677782809.287346) can0 310#2000000000000000
(1677782809.287517) can0 266#220022222222
(1677782809.301856) can0 206#0000000000000000
(1677782809.302108) can0 207#0000000000000000
(1677782809.302362) can0 208#0000000000000000
(1677782809.312348) can0 310#2000000000000000
(1677782809.312535) can0 267#220022222200
(1677782809.326856) can0 20C#0000000000000000
(1677782809.327107) can0 20D#0000000000000000
(1677782809.327356) can0 20E#0000000000000000
(1677782809.337391) can0 310#2000000000000000
(1677782809.337571) can0 270#0000000000000000
(1677782809.337799) can0 272#000000000000
(1677782809.338040) can0 555#0000000003000000
(1677782809.338474) can0 271#00000000001E
(1677782809.338658) can0 268#370037373737
(1677782809.351840) can0 212#CD64F064D364D964
(1677782809.352069) can0 213#C0646C64BF644865
(1677782809.352292) can0 214#6F648665B364DB64
(1677782809.362345) can0 310#2000000000000000
(1677782809.362516) can0 269#370037373700
(1677782809.376857) can0 218#0000000000000000
(1677782809.377109) can0 219#0000000000000000
(1677782809.377353) can0 21A#0000000000000000
(1677782809.387345) can0 310#2000000000000000
(1677782809.387529) can0 26A#000000000000
(1677782809.401849) can0 21E#0000000000000000
(1677782809.402101) can0 21F#0000000000000000
(1677782809.402350) can0 220#0000000000000000
(1677782809.412346) can0 310#2000000000000000
(1677782809.412554) can0 26B#000000000000
(1677782809.426857) can0 224#0000000000000000
(1677782809.427112) can0 225#0000000000000000
(1677782809.427356) can0 226#0000000000000000
(1677782809.437389) can0 310#2000000000000000
(1677782809.437568) can0 270#0000000000000000
(1677782809.437797) can0 272#000000000000
(1677782809.438039) can0 555#0000000003000000
(1677782809.438471) can0 271#00000000001E
(1677782809.438685) can0 26C#000000000000
(1677782809.451928) can0 22A#0000000000000000
(1677782809.452107) can0 22B#0000000000000000
(1677782809.452409) can0 22C#0000000000000000
(1677782809.462343) can0 310#2000000000000000
(1677782809.462523) can0 26D#000000000000
(1677782809.476858) can0 230#0000000000000000
(1677782809.477110) can0 231#0000000000000000
(1677782809.477356) can0 232#0000000000000000
(1677782809.487342) can0 310#2000000000000000
(1677782809.487525) can0 26E#000000000000
(1677782809.501853) can0 236#0000000000000000
(1677782809.502099) can0 237#0000000000000000
(1677782809.502349) can0 238#0000000000000000
(1677782809.512409) can0 310#2000000000000000
(1677782809.512521) can0 26F#000000000000
(1677782809.526855) can0 1F4#0000000000000000
(1677782809.527111) can0 1F5#0000000000000000
(1677782809.527357) can0 1F6#0000000000000000
(1677782809.537388) can0 310#2000000000000000
(1677782809.537567) can0 270#0000000000000000
(1677782809.537797) can0 272#000000000000
(1677782809.538036) can0 555#0000000003000000
(1677782809.538469) can0 271#00000000001E
(1677782809.538686) can0 258#000000000000
(1677782809.551860) can0 1FA#0000000000000000
(1677782809.552114) can0 1FB#0000000000000000
(1677782809.552364) can0 1FC#0000000000000000
(1677782809.562342) can0 310#2000000000000000
(1677782809.562520) can0 259#000000000000
(1677782809.576871) can0 200#0000000000000000
(1677782809.577130) can0 201#0000000000000000
(1677782809.577371) can0 202#0000000000000000
(1677782809.587344) can0 310#2000000000000000
(1677782809.587531) can0 25A#000000000000
(1677782809.601851) can0 206#0000000000000000
(1677782809.602114) can0 207#0000000000000000
(1677782809.602357) can0 208#0000000000000000
(1677782809.612348) can0 310#2000000000000000
(1677782809.612525) can0 25B#000000000000
(1677782809.626853) can0 20C#0000000000000000
(1677782809.627103) can0 20D#0000000000000000
(1677782809.627353) can0 20E#0000000000000000
(1677782809.637390) can0 310#2000000000000000
(1677782809.637648) can0 270#0000000000000000
(1677782809.637760) can0 272#000000000000
(1677782809.638045) can0 555#0000000003000000
(1677782809.638468) can0 271#00000000001E
(1677782809.638684) can0 25C#000000000000
(1677782809.651826) can0 212#CD64F064D364D964
(1677782809.652053) can0 213#C1646B64BE644765
(1677782809.652280) can0 214#6E648565B464DA64
(1677782809.662340) can0 310#2000000000000000
(1677782809.662517) can0 25D#000000000000
(1677782809.676855) can0 218#0000000000000000
(1677782809.677106) can0 219#0000000000000000
(1677782809.677352) can0 21A#0000000000000000
(1677782809.687340) can0 310#2000000000000000
(1677782809.687513) can0 25E#230023232323
(1677782809.701846) can0 21E#0000000000000000
(1677782809.702099) can0 21F#0000000000000000
(1677782809.702348) can0 220#0000000000000000
(1677782809.712347) can0 310#2000000000000000
(1677782809.712519) can0 25F#230023232300
(1677782809.726852) can0 224#0000000000000000
(1677782809.727102) can0 225#0000000000000000
(1677782809.727350) can0 226#0000000000000000
(1677782809.737384) can0 310#2000000000000000
(1677782809.737720) can0 270#0000000000000000
(1677782809.737830) can0 272#000000000000
(1677782809.738024) can0 555#0000000003000000
(1677782809.738466) can0 271#00000000001E
(1677782809.738682) can0 260#310000000031
(1677782809.751847) can0 22A#0000000000000000
(1677782809.752125) can0 22B#0000000000000000
(1677782809.752391) can0 22C#0000000000000000
(1677782809.762337) can0 310#2000000000000000
(1677782809.762515) can0 261#000031000000
(1677782809.776855) can0 230#0000000000000000
(1677782809.777125) can0 231#0000000000000000
(1677782809.777350) can0 232#0000000000000000
(1677782809.787339) can0 310#2000000000000000
(1677782809.787511) can0 262#282828282828
(1677782809.801847) can0 236#0000000000000000
(1677782809.802095) can0 237#0000000000000000
(1677782809.802344) can0 238#0000000000000000
(1677782809.812390) can0 310#2000000000000000
(1677782809.812569) can0 263#282828282828
(1677782809.826853) can0 1F4#0000000000000000
(1677782809.827107) can0 1F5#0000000000000000
(1677782809.827353) can0 1F6#0000000000000000
(1677782809.837382) can0 310#2000000000000000
(1677782809.837562) can0 270#0000000000000000
(1677782809.837790) can0 272#000000000000
(1677782809.838035) can0 555#0000000003000000
(1677782809.838466) can0 271#00000000001E
(1677782809.838683) can0 264#310200000031
(1677782809.851852) can0 1FA#0000000000000000
(1677782809.852107) can0 1FB#0000000000000000
(1677782809.852357) can0 1FC#0000000000000000
(1677782809.862338) can0 310#2000000000000000
(1677782809.862515) can0 265#000034000000
(1677782809.876862) can0 200#0000000000000000
(1677782809.877113) can0 201#0000000000000000
(1677782809.877362) can0 202#0000000000000000
(1677782809.887337) can0 310#2000000000000000
(1677782809.887508) can0 266#220022222222
(1677782809.901848) can0 206#0000000000000000
(1677782809.902100) can0 207#0000000000000000
(1677782809.902355) can0 208#0000000000000000
(1677782809.912345) can0 310#2000000000000000
(1677782809.912517) can0 267#220022222200
(1677782809.926852) can0 20C#0000000000000000
(1677782809.927106) can0 20D#0000000000000000
(1677782809.927350) can0 20E#0000000000000000
(1677782809.937396) can0 310#2000000000000000
(1677782809.937575) can0 270#0000000000000000
(1677782809.937804) can0 272#000000000000
(1677782809.938048) can0 555#0000000003000000
(1677782809.938464) can0 271#00000000001E
(1677782809.938680) can0 268#370037373737
(1677782809.951825) can0 212#CC64F064D364D964
(1677782809.952052) can0 213#C0646A64BE644765
(1677782809.952276) can0 214#6E648565B464DB64
(1677782809.962339) can0 310#2000000000000000
(1677782809.962513) can0 269#370037373700
(1677782809.976854) can0 218#0000000000000000
(1677782809.977103) can0 219#0000000000000000
(1677782809.977349) can0 21A#0000000000000000
(1677782809.987339) can0 310#2000000000000000
(1677782809.987516) can0 26A#000000000000
(1677782810.001847) can0 21E#0000000000000000
(1677782810.002099) can0 21F#0000000000000000
(1677782810.002348) can0 220#0000000000000000
(1677782810.012340) can0 310#2000000000000000
(1677782810.012529) can0 26B#000000000000
(1677782810.026862) can0 224#0000000000000000
(1677782810.027105) can0 225#0000000000000000
(1677782810.027347) can0 226#0000000000000000
(1677782810.037392) can0 310#2000000000000000
(1677782810.037581) can0 270#0000000000000000
(1677782810.037780) can0 272#000000000000
(1677782810.038033) can0 555#0000000003000000
(1677782810.038463) can0 271#00000000001E
(1677782810.038676) can0 26C#000000000000
(1677782810.051841) can0 22A#0000000000000000
(1677782810.052126) can0 22B#0000000000000000
(1677782810.052411) can0 22C#0000000000000000
(1677782810.062342) can0 310#2000000000000000
(1677782810.062517) can0 26D#000000000000
(1677782810.076851) can0 230#0000000000000000
(1677782810.077112) can0 231#0000000000000000
(1677782810.077351) can0 232#0000000000000000
(1677782810.087343) can0 310#2000000000000000
(1677782810.087518) can0 26E#000000000000
(1677782810.101844) can0 236#0000000000000000
(1677782810.102093) can0 237#0000000000000000
(1677782810.102342) can0 238#0000000000000000
(1677782810.112389) can0 310#2000000000000000
(1677782810.112578) can0 26F#000000000000
(1677782810.126845) can0 1F4#0000000000000000
(1677782810.127098) can0 1F5#0000000000000000
(1677782810.127349) can0 1F6#0000000000000000
(1677782810.137389) can0 310#2000000000000000
(1677782810.137578) can0 270#0000000000000000
(1677782810.137777) can0 272#000000000000
(1677782810.138030) can0 555#0000000003000000
(1677782810.138463) can0 271#00000000001E
(1677782810.138677) can0 258#000000000000
(1677782810.151844) can0 1FA#0000000000000000
(1677782810.152097) can0 1FB#0000000000000000
(1677782810.152349) can0 1FC#0000000000000000
(1677782810.162339) can0 310#2000000000000000
(1677782810.162514) can0 259#000000000000
(1677782810.176867) can0 200#0000000000000000
(1677782810.177131) can0 201#0000000000000000
(1677782810.177365) can0 202#0000000000000000
(1677782810.187341) can0 310#2000000000000000
(1677782810.187516) can0 25A#000000000000
(1677782810.201844) can0 206#0000000000000000
(1677782810.202095) can0 207#0000000000000000
(1677782810.202349) can0 208#0000000000000000
(1677782810.212341) can0 310#2000000000000000
(1677782810.212539) can0 25B#000000000000
(1677782810.226843) can0 20C#0000000000000000
(1677782810.227100) can0 20D#0000000000000000
(1677782810.227354) can0 20E#0000000000000000
(1677782810.237409) can0 310#2000000000000000
(1677782810.237587) can0 270#0000000000000000
(1677782810.237801) can0 272#000000000000
(1677782810.238042) can0 555#0000000003000000
(1677782810.238461) can0 271#00000000001E
(1677782810.238667) can0 25C#000000000000
(1677782810.251853) can0 212#CE64EF64D264D964
(1677782810.252041) can0 213#C0646C64BE644865
(1677782810.252266) can0 214#6E648565B464DC64
(1677782810.262338) can0 310#2000000000000000
(1677782810.262525) can0 25D#000000000000
(1677782810.276851) can0 218#0000000000000000
(1677782810.277090) can0 219#0000000000000000
(1677782810.277346) can0 21A#0000000000000000
(1677782810.287337) can0 310#2000000000000000
(1677782810.287525) can0 25E#230023232323
(1677782810.301841) can0 21E#0000000000000000
(1677782810.302091) can0 21F#0000000000000000
(1677782810.302341) can0 220#0000000000000000
(1677782810.312339) can0 310#2000000000000000
(1677782810.312527) can0 25F#230023232300
(1677782810.326851) can0 224#0000000000000000
(1677782810.327094) can0 225#0000000000000000
(1677782810.327349) can0 226#0000000000000000
(1677782810.337385) can0 310#2000000000000000
(1677782810.337645) can0 270#0000000000000000
(1677782810.337756) can0 272#000000000000
(1677782810.338029) can0 555#0000000003000000
(1677782810.338458) can0 271#00000000001E
(1677782810.338665) can0 260#310000000031
(1677782810.351839) can0 22A#0000000000000000
(1677782810.352088) can0 22B#0000000000000000
(1677782810.352376) can0 22C#0000000000000000
(1677782810.362335) can0 310#2000000000000000
(1677782810.362517) can0 261#000031000000
(1677782810.376851) can0 230#0000000000000000
(1677782810.377102) can0 231#0000000000000000
(1677782810.377349) can0 232#0000000000000000
(1677782810.387335) can0 310#2000000000000000
(1677782810.387509) can0 262#282828282828
(1677782810.401842) can0 236#0000000000000000
(1677782810.402088) can0 237#0000000000000000
(1677782810.402338) can0 238#0000000000000000
(1677782810.412388) can0 310#2000000000000000
(1677782810.412658) can0 263#282828282828
(1677782810.426844) can0 1F4#0000000000000000
(1677782810.427107) can0 1F5#0000000000000000
(1677782810.427345) can0 1F6#0000000000000000
(1677782810.437381) can0 310#2000000000000000
(1677782810.437641) can0 270#0000000000000000
(1677782810.437753) can0 272#000000000000
(1677782810.438025) can0 555#0000000003000000
(1677782810.438457) can0 271#00000000001E
(1677782810.438662) can0 264#310200000031
(1677782810.451908) can0 1FA#0000000000000000
(1677782810.452093) can0 1FB#0000000000000000
(1677782810.452345) can0 1FC#0000000000000000
(1677782810.462334) can0 310#2000000000000000
(1677782810.462516) can0 265#000034000000
(1677782810.476859) can0 200#0000000000000000
(1677782810.477110) can0 201#0000000000000000
(1677782810.477356) can0 202#0000000000000000
(1677782810.487335) can0 310#2000000000000000
(1677782810.487511) can0 266#220022222222
(1677782810.501838) can0 206#0000000000000000
(1677782810.502089) can0 207#0000000000000000
(1677782810.502343) can0 208#0000000000000000
(1677782810.512336) can0 310#2000000000000000
(1677782810.512509) can0 267#220022222200
(1677782810.526840) can0 20C#0000000000000000
(1677782810.527088) can0 20D#0000000000000000
(1677782810.527343) can0 20E#0000000000000000
(1677782810.537406) can0 310#2000000000000000
(1677782810.537666) can0 270#0000000000000000
(1677782810.537779) can0 272#000000000000
(1677782810.538053) can0 555#0000000003000000
(1677782810.538456) can0 271#00000000001E
(1677782810.538658) can0 268#370037373737
(1677782810.551815) can0 212#CE64F064D364D964
(1677782810.552127) can0 213#C1646B64BF644865
(1677782810.552240) can0 214#6F648665B364DA64
(1677782810.562333) can0 310#2000000000000000
(1677782810.562506) can0 269#370037373700
(1677782810.576842) can0 218#0000000000000000
(1677782810.577084) can0 219#0000000000000000
(1677782810.577332) can0 21A#0000000000000000
(1677782810.587332) can0 310#2000000000000000
(1677782810.587514) can0 26A#000000000000
(1677782810.601835) can0 21E#0000000000000000
(1677782810.602085) can0 21F#0000000000000000
(1677782810.602336) can0 220#0000000000000000
(1677782810.612337) can0 310#2000000000000000
(1677782810.612519) can0 26B#000000000000
(1677782810.626837) can0 224#0000000000000000
(1677782810.627088) can0 225#0000000000000000
(1677782810.627348) can0 226#0000000000000000
(1677782810.637380) can0 310#2000000000000000
(1677782810.637641) can0 270#0000000000000000
(1677782810.637753) can0 272#000000000000
(1677782810.638022) can0 555#0000000003000000
(1677782810.638454) can0 271#00000000001E
(1677782810.638665) can0 26C#000000000000
(1677782810.651837) can0 22A#0000000000000000
(1677782810.652086) can0 22B#0000000000000000
(1677782810.652424) can0 22C#0000000000000000
(1677782810.662329) can0 310#2000000000000000
(1677782810.662510) can0 26D#000000000000
(1677782810.676847) can0 230#0000000000000000
(1677782810.677095) can0 231#0000000000000000
(1677782810.677343) can0 232#0000000000000000
(1677782810.687331) can0 310#2000000000000000
(1677782810.687513) can0 26E#000000000000
(1677782810.701836) can0 236#0000000000000000
(1677782810.702082) can0 237#0000000000000000
(1677782810.702332) can0 238#0000000000000000
(1677782810.712329) can0 310#2000000000000000
(1677782810.712591) can0 26F#000000000000
(1677782810.726838) can0 1F4#0000000000000000
(1677782810.727087) can0 1F5#0000000000000000
(1677782810.727351) can0 1F6#0000000000000000
(1677782810.737380) can0 310#2000000000000000
(1677782810.737557) can0 270#0000000000000000
(1677782810.737776) can0 272#000000000000
(1677782810.738023) can0 555#0000000003000000
(1677782810.738453) can0 271#00000000001E
(1677782810.738665) can0 258#000000000000
(1677782810.751836) can0 1FA#0000000000000000
(1677782810.752125) can0 1FB#0000000000000000
(1677782810.752340) can0 1FC#0000000000000000
(1677782810.762330) can0 310#2000000000000000
(1677782810.762511) can0 259#000000000000
(1677782810.776848) can0 200#0000000000000000
(1677782810.777098) can0 201#0000000000000000
(1677782810.777348) can0 202#0000000000000000
(1677782810.787328) can0 310#2000000000000000
(1677782810.787509) can0 25A#000000000000
(1677782810.801836) can0 206#0000000000000000
(1677782810.802088) can0 207#0000000000000000
(1677782810.802342) can0 208#0000000000000000
(1677782810.812334) can0 310#2000000000000000
(1677782810.812516) can0 25B#000000000000
(1677782810.826835) can0 20C#0000000000000000
(1677782810.827085) can0 20D#0000000000000000
(1677782810.827335) can0 20E#0000000000000000
(1677782810.837403) can0 310#2000000000000000
(1677782810.837664) can0 270#0000000000000000
(1677782810.837776) can0 272#000000000000
(1677782810.838044) can0 555#0000000003000000
(1677782810.838449) can0 271#00000000001E
(1677782810.838659) can0 25C#000000000000
(1677782810.851809) can0 212#CD64F064D364DA64
(1677782810.852131) can0 213#C0646C64BE644765
(1677782810.852242) can0 214#6E648565B564DB64
(1677782810.862321) can0 310#2000000000000000
(1677782810.862503) can0 25D#000000000000
(1677782810.876841) can0 218#0000000000000000
(1677782810.877087) can0 219#0000000000000000
(1677782810.877334) can0 21A#0000000000000000
(1677782810.887320) can0 310#2000000000000000
(1677782810.887493) can0 25E#230023232323
(1677782810.901829) can0 21E#0000000000000000
(1677782810.902080) can0 21F#0000000000000000
(1677782810.902330) can0 220#0000000000000000
(1677782810.912334) can0 310#2000000000000000
(1677782810.912506) can0 25F#230023232300
(1677782810.926839) can0 224#0000000000000000
(1677782810.927089) can0 225#0000000000000000
(1677782810.927336) can0 226#0000000000000000
(1677782810.937378) can0 310#2000000000000000
(1677782810.937633) can0 270#0000000000000000
(1677782810.937746) can0 272#000000000000
(1677782810.938021) can0 555#0000000003000000
(1677782810.938450) can0 271#00000000001E
(1677782810.938653) can0 260#310000000031
(1677782810.951831) can0 22A#0000000000000000
(1677782810.952080) can0 22B#0000000000000000
(1677782810.952332) can0 22C#0000000000000000
(1677782810.962327) can0 310#2000000000000000
(1677782810.962508) can0 261#000031000000
(1677782810.976841) can0 230#0000000000000000
(1677782810.977091) can0 231#0000000000000000
(1677782810.977338) can0 232#0000000000000000
(1677782810.987327) can0 310#2000000000000000
(1677782810.987502) can0 262#282828282828
(1677782811.001833) can0 236#0000000000000000
(1677782811.002080) can0 237#0000000000000000
(1677782811.002330) can0 238#0000000000000000
(1677782811.012328) can0 310#2000000000000000
(1677782811.012646) can0 263#282828282828
(1677782811.026838) can0 1F4#0000000000000000
(1677782811.027087) can0 1F5#0000000000000000
(1677782811.027338) can0 1F6#0000000000000000
(1677782811.037376) can0 310#2000000000000000
(1677782811.037636) can0 270#0000000000000000
(1677782811.037748) can0 272#000000000000
(1677782811.038017) can0 555#0000000003000000
(1677782811.038448) can0 271#00000000001E
(1677782811.038654) can0 264#310200000031
(1677782811.051831) can0 1FA#0000000000000000
(1677782811.052082) can0 1FB#0000000000000000
(1677782811.052360) can0 1FC#0000000000000000
(1677782811.062326) can0 310#2000000000000000
(1677782811.062508) can0 265#000034000000
(1677782811.076853) can0 200#0000000000000000
(1677782811.077101) can0 201#0000000000000000
(1677782811.077349) can0 202#0000000000000000
(1677782811.087328) can0 310#2000000000000000
(1677782811.087503) can0 266#220022222222
(1677782811.101833) can0 206#0000000000000000
(1677782811.102082) can0 207#0000000000000000
(1677782811.102336) can0 208#0000000000000000
(1677782811.112355) can0 310#2000000000000000
(1677782811.112482) can0 267#220022222200
(1677782811.126832) can0 20C#0000000000000000
(1677782811.127080) can0 20D#0000000000000000
(1677782811.127332) can0 20E#0000000000000000
(1677782811.137400) can0 310#2000000000000000
(1677782811.137578) can0 270#0000000000000000
(1677782811.137794) can0 272#000000000000
(1677782811.138041) can0 555#0000000003000000
(1677782811.138447) can0 271#00000000001E
(1677782811.138645) can0 268#370037373737
(1677782811.151804) can0 212#CE64F064D264D964
(1677782811.152029) can0 213#C1646B64BE644765
(1677782811.152289) can0 214#6E648565B464DB64
(1677782811.162325) can0 310#2000000000000000
(1677782811.162499) can0 269#370037373700
(1677782811.176834) can0 218#0000000000000000
(1677782811.177082) can0 219#0000000000000000
(1677782811.177329) can0 21A#0000000000000000
(1677782811.187324) can0 310#2000000000000000
(1677782811.187521) can0 26A#000000000000
(1677782811.201827) can0 21E#0000000000000000
(1677782811.202077) can0 21F#0000000000000000
(1677782811.202328) can0 220#0000000000000000
(1677782811.212409) can0 310#2000000000000000
(1677782811.212523) can0 26B#000000000000
(1677782811.226831) can0 224#0000000000000000
(1677782811.227082) can0 225#0000000000000000
(1677782811.227329) can0 226#0000000000000000
(1677782811.237471) can0 310#2000000000000000
(1677782811.237650) can0 270#0000000000000000
(1677782811.237762) can0 272#000000000000
(1677782811.238015) can0 555#0000000003000000
(1677782811.238446) can0 271#00000000001E
(1677782811.238657) can0 26C#000000000000
(1677782811.251827) can0 22A#0000000000000000
(1677782811.252076) can0 22B#0000000000000000
(1677782811.252327) can0 22C#0000000000000000
(1677782811.262322) can0 310#2000000000000000
(1677782811.262519) can0 26D#000000000000
(1677782811.276839) can0 230#0000000000000000
(1677782811.277087) can0 231#0000000000000000
(1677782811.277334) can0 232#0000000000000000
(1677782811.287326) can0 310#2000000000000000
(1677782811.287501) can0 26E#000000000000
(1677782811.301832) can0 236#0000000000000000
(1677782811.302078) can0 237#0000000000000000
(1677782811.302328) can0 238#0000000000000000
(1677782811.312324) can0 310#2000000000000000
(1677782811.312498) can0 26F#000000000000
(1677782811.326832) can0 1F4#0000000000000000
(1677782811.327081) can0 1F5#0000000000000000
(1677782811.327333) can0 1F6#0000000000000000
(1677782811.337479) can0 310#2000000000000000
(1677782811.337657) can0 270#0000000000000000
(1677782811.337770) can0 272#000000000000
(1677782811.338022) can0 555#0000000003000000
(1677782811.338445) can0 271#00000000001E
(1677782811.338657) can0 258#000000000000
(1677782811.351828) can0 1FA#0000000000000000
(1677782811.352079) can0 1FB#0000000000000000
(1677782811.352362) can0 1FC#0000000000000000
(1677782811.362323) can0 310#2000000000000000
(1677782811.362502) can0 259#000000000000
(1677782811.376846) can0 200#0000000000000000
(1677782811.377097) can0 201#0000000000000000
(1677782811.377345) can0 202#0000000000000000
(1677782811.387322) can0 310#2000000000000000
(1677782811.387518) can0 25A#000000000000
(1677782811.401829) can0 206#0000000000000000
(1677782811.402079) can0 207#0000000000000000
(1677782811.402333) can0 208#0000000000000000
(1677782811.412370) can0 310#2000000000000000
(1677782811.412499) can0 25B#000000000000
(1677782811.426827) can0 20C#0000000000000000
(1677782811.427076) can0 20D#0000000000000000
(1677782811.427327) can0 20E#0000000000000000
(1677782811.437491) can0 310#2000000000000000
(1677782811.437670) can0 270#0000000000000000
(1677782811.437783) can0 272#000000000000
(1677782811.438035) can0 555#0000000003000000
(1677782811.438445) can0 271#00000000001E
(1677782811.438653) can0 25C#000000000000
(1677782811.451799) can0 212#CC64EF64D364DA64
(1677782811.452021) can0 213#C0646C64BD644765
(1677782811.452309) can0 214#6E648665B564DA64
(1677782811.462317) can0 310#2000000000000000
(1677782811.462513) can0 25D#000000000000
(1677782811.476829) can0 218#0000000000000000
(1677782811.477074) can0 219#0000000000000000
(1677782811.477322) can0 21A#0000000000000000
(1677782811.487320) can0 310#2000000000000000
(1677782811.487494) can0 25E#230023232323
(1677782811.501822) can0 21E#0000000000000000
(1677782811.502072) can0 21F#0000000000000000
(1677782811.502322) can0 220#0000000000000000
(1677782811.512363) can0 310#2000000000000000
(1677782811.512491) can0 25F#230023232300
(1677782811.526827) can0 224#0000000000000000
(1677782811.527077) can0 225#0000000000000000
(1677782811.527325) can0 226#0000000000000000
(1677782811.537365) can0 310#2000000000000000
(1677782811.537676) can0 270#0000000000000000
(1677782811.537790) can0 272#000000000000
(1677782811.538011) can0 555#0000000003000000
(1677782811.551824) can0 22A#0000000000000000
(1677782811.552072) can0 22B#0000000000000000
(1677782811.552324) can0 22C#0000000000000000
(1677782811.562322) can0 310#2000000000000000
(1677782811.562497) can0 261#000031000000
(1677782811.576836) can0 230#0000000000000000
(1677782811.577085) can0 231#0000000000000000
(1677782811.577332) can0 232#0000000000000000
(1677782811.587322) can0 310#2000000000000000
(1677782811.587497) can0 262#282828282828
(1677782811.601824) can0 236#0000000000000000
(1677782811.602066) can0 237#0000000000000000
(1677782811.602316) can0 238#0000000000000000
(1677782811.612322) can0 310#2000000000000000
(1677782811.612497) can0 263#282828282828
(1677782811.626822) can0 1F4#0000000000000000
(1677782811.627073) can0 1F5#0000000000000000
(1677782811.627321) can0 1F6#0000000000000000
(1677782811.637343) can0 310#2000000000000000
(1677782811.637612) can0 270#0000000000000000
(1677782811.637716) can0 272#000000000000
(1677782811.638008) can0 555#0000000003000000
(1677782811.638429) can0 271#00000000001E
(1677782811.638635) can0 264#310200000031
(1677782811.651814) can0 1FA#0000000000000000
(1677782811.652065) can0 1FB#0000000000000000
(1677782811.652317) can0 1FC#0000000000000000
(1677782811.662298) can0 310#2000000000000000
(1677782811.662496) can0 265#000034000000
(1677782811.676830) can0 200#0000000000000000
(1677782811.677080) can0 201#0000000000000000
(1677782811.677332) can0 202#0000000000000000
(1677782811.687290) can0 310#2000000000000000
(1677782811.687477) can0 266#220022222222
(1677782811.701814) can0 206#0000000000000000
(1677782811.702065) can0 207#0000000000000000
(1677782811.702319) can0 208#0000000000000000
(1677782811.712349) can0 310#2000000000000000
(1677782811.712550) can0 267#220022222200
(1677782811.726822) can0 20C#0000000000000000
(1677782811.727075) can0 20D#0000000000000000
(1677782811.727324) can0 20E#0000000000000000
(1677782811.737382) can0 310#2000000000000000
(1677782811.737649) can0 270#0000000000000000
(1677782811.737763) can0 272#000000000000
(1677782811.738026) can0 555#0000000003000000
(1677782811.738438) can0 271#00000000001E
(1677782811.738635) can0 268#370037373737
(1677782811.751797) can0 212#CD64F064D364DA64
(1677782811.752024) can0 213#C1646C64BE644865
(1677782811.752250) can0 214#6F648665B564DB64
(1677782811.762320) can0 310#2000000000000000
(1677782811.762495) can0 269#370037373700
(1677782811.776825) can0 218#0000000000000000
(1677782811.777075) can0 219#0000000000000000
(1677782811.777320) can0 21A#0000000000000000
(1677782811.787319) can0 310#2000000000000000
(1677782811.787515) can0 26A#000000000000
(1677782811.801819) can0 21E#0000000000000000
(1677782811.802070) can0 21F#0000000000000000
(1677782811.802320) can0 220#0000000000000000
(1677782811.812353) can0 310#2000000000000000
(1677782811.812531) can0 26B#000000000000
(1677782811.826825) can0 224#0000000000000000
(1677782811.827078) can0 225#0000000000000000
(1677782811.827322) can0 226#0000000000000000
(1677782811.837375) can0 310#2000000000000000
(1677782811.837552) can0 270#0000000000000000
(1677782811.837770) can0 272#000000000000
(1677782811.838015) can0 555#0000000003000000
(1677782811.838435) can0 271#00000000001E
(1677782811.838648) can0 26C#000000000000
(1677782811.851817) can0 22A#0000000000000000
(1677782811.852066) can0 22B#0000000000000000
(1677782811.852319) can0 22C#0000000000000000
(1677782811.862312) can0 310#2000000000000000
(1677782811.862507) can0 26D#000000000000
(1677782811.876826) can0 230#0000000000000000
(1677782811.877079) can0 231#0000000000000000
(1677782811.877325) can0 232#0000000000000000
(1677782811.887312) can0 310#2000000000000000
(1677782811.887507) can0 26E#000000000000
(1677782811.901818) can0 236#0000000000000000
(1677782811.902065) can0 237#0000000000000000
(1677782811.902315) can0 238#0000000000000000
(1677782811.912310) can0 310#2000000000000000
(1677782811.912489) can0 26F#000000000000
(1677782811.926825) can0 1F4#0000000000000000
(1677782811.927075) can0 1F5#0000000000000000
(1677782811.927324) can0 1F6#0000000000000000
(1677782811.937456) can0 310#2000000000000000
(1677782811.937634) can0 270#0000000000000000
(1677782811.937747) can0 272#000000000000
(1677782811.938015) can0 555#0000000003000000
(1677782811.938436) can0 271#00000000001E
(1677782811.938650) can0 258#000000000000
(1677782811.951825) can0 1FA#0000000000000000
(1677782811.952076) can0 1FB#0000000000000000
(1677782811.952328) can0 1FC#0000000000000000
(1677782811.962317) can0 310#2000000000000000
(1677782811.962496) can0 259#000000000000
(1677782811.976836) can0 200#0000000000000000
(1677782811.977085) can0 201#0000000000000000
(1677782811.977334) can0 202#0000000000000000
(1677782811.987316) can0 310#2000000000000000
(1677782811.987493) can0 25A#000000000000
(1677782812.001820) can0 206#0000000000000000
(1677782812.002070) can0 207#0000000000000000
(1677782812.002325) can0 208#0000000000000000
(1677782812.012314) can0 310#2000000000000000
(1677782812.012629) can0 25B#000000000000
(1677782812.026822) can0 20C#0000000000000000
(1677782812.027072) can0 20D#0000000000000000
(1677782812.027321) can0 20E#0000000000000000
(1677782812.037387) can0 310#2000000000000000
(1677782812.037564) can0 270#0000000000000000
(1677782812.037775) can0 272#000000000000
(1677782812.038027) can0 555#0000000003000000
(1677782812.038436) can0 271#00000000001E
(1677782812.038645) can0 25C#000000000000
(1677782812.051788) can0 212#CD64EF64D364DA64
(1677782812.052015) can0 213#C0646B64BE644865
(1677782812.052239) can0 214#6E648765B564DB64
(1677782812.062312) can0 310#2000000000000000
(1677782812.062487) can0 25D#000000000000
(1677782812.076823) can0 218#0000000000000000
(1677782812.077074) can0 219#0000000000000000
(1677782812.077319) can0 21A#0000000000000000
(1677782812.087314) can0 310#2000000000000000
(1677782812.087489) can0 25E#230023232323
(1677782812.101815) can0 21E#0000000000000000
(1677782812.102066) can0 21F#0000000000000000
(1677782812.102316) can0 220#0000000000000000
(1677782812.112312) can0 310#2000000000000000
(1677782812.112523) can0 25F#230023232300
(1677782812.126818) can0 224#0000000000000000
(1677782812.127073) can0 225#0000000000000000
(1677782812.127317) can0 226#0000000000000000
(1677782812.137366) can0 310#2000000000000000
(1677782812.137677) can0 270#0000000000000000
(1677782812.137791) can0 272#000000000000
(1677782812.138009) can0 555#0000000003000000
(1677782812.138434) can0 271#00000000001E
(1677782812.138640) can0 260#310000000031
(1677782812.151813) can0 22A#0000000000000000
(1677782812.152062) can0 22B#0000000000000000
(1677782812.152314) can0 22C#0000000000000000
(1677782812.162310) can0 310#2000000000000000
(1677782812.162484) can0 261#000031000000
(1677782812.176824) can0 230#0000000000000000
(1677782812.177077) can0 231#0000000000000000
(1677782812.177320) can0 232#0000000000000000
(1677782812.187310) can0 310#2000000000000000
(1677782812.187484) can0 262#282828282828
(1677782812.201816) can0 236#0000000000000000
(1677782812.202062) can0 237#0000000000000000
(1677782812.202313) can0 238#0000000000000000
(1677782812.212311) can0 310#2000000000000000
(1677782812.212485) can0 263#282828282828
(1677782812.226822) can0 1F4#0000000000000000
(1677782812.227073) can0 1F5#0000000000000000
(1677782812.227321) can0 1F6#0000000000000000
(1677782812.237364) can0 310#2000000000000000
(1677782812.237542) can0 270#0000000000000000
(1677782812.237763) can0 272#000000000000
(1677782812.238005) can0 555#0000000003000000
(1677782812.238433) can0 271#00000000001E
(1677782812.238639) can0 264#310200000031
(1677782812.251816) can0 1FA#0000000000000000
(1677782812.252067) can0 1FB#0000000000000000
(1677782812.252319) can0 1FC#0000000000000000
(1677782812.262311) can0 310#2000000000000000
(1677782812.262485) can0 265#000034000000
(1677782812.276835) can0 200#0000000000000000
(1677782812.277084) can0 201#0000000000000000
(1677782812.277336) can0 202#0000000000000000
(1677782812.287309) can0 310#2000000000000000
(1677782812.287484) can0 266#220022222222
(1677782812.301816) can0 206#0000000000000000
(1677782812.302067) can0 207#0000000000000000
(1677782812.302322) can0 208#0000000000000000
(1677782812.312311) can0 310#2000000000000000
(1677782812.312485) can0 267#220022222200
(1677782812.326814) can0 20C#0000000000000000
(1677782812.327068) can0 20D#0000000000000000
(1677782812.327317) can0 20E#0000000000000000
(1677782812.337382) can0 310#2000000000000000
(1677782812.337694) can0 270#0000000000000000
(1677782812.337808) can0 272#000000000000
(1677782812.338025) can0 555#0000000003000000
(1677782812.338430) can0 271#00000000001E
(1677782812.338628) can0 268#370037373737
(1677782812.351789) can0 212#CD64F064D364D964
(1677782812.352016) can0 213#C1646C64BE644865
(1677782812.352240) can0 214#6F648565B464DA64
(1677782812.362308) can0 310#2000000000000000
(1677782812.362483) can0 269#370037373700
(1677782812.376818) can0 218#0000000000000000
(1677782812.377068) can0 219#0000000000000000
(1677782812.377312) can0 21A#0000000000000000
(1677782812.387307) can0 310#2000000000000000
(1677782812.387504) can0 26A#000000000000
(1677782812.401810) can0 21E#0000000000000000
(1677782812.402060) can0 21F#0000000000000000
(1677782812.402311) can0 220#0000000000000000
(1677782812.412307) can0 310#2000000000000000
(1677782812.412503) can0 26B#000000000000
(1677782812.426816) can0 224#0000000000000000
(1677782812.427068) can0 225#0000000000000000
(1677782812.427313) can0 226#0000000000000000
(1677782812.437363) can0 310#2000000000000000
(1677782812.437672) can0 270#0000000000000000
(1677782812.437786) can0 272#000000000000
(1677782812.438007) can0 555#0000000003000000
(1677782812.438429) can0 271#00000000001E
(1677782812.438641) can0 26C#000000000000
(1677782812.451811) can0 22A#0000000000000000
(1677782812.452059) can0 22B#0000000000000000
(1677782812.452310) can0 22C#0000000000000000
(1677782812.462309) can0 310#2000000000000000
(1677782812.462487) can0 26D#000000000000
(1677782812.476822) can0 230#0000000000000000
(1677782812.477073) can0 231#0000000000000000
(1677782812.477341) can0 232#0000000000000000
(1677782812.487302) can0 310#2000000000000000
(1677782812.487501) can0 26E#000000000000
(1677782812.501814) can0 236#0000000000000000
(1677782812.502060) can0 237#0000000000000000
(1677782812.502309) can0 238#0000000000000000
(1677782812.512321) can0 310#2000000000000000
(1677782812.512497) can0 26F#000000000000
(1677782812.526817) can0 1F4#0000000000000000
(1677782812.527071) can0 1F5#0000000000000000
(1677782812.527318) can0 1F6#0000000000000000
(1677782812.537353) can0 310#2000000000000000
(1677782812.537605) can0 270#0000000000000000
(1677782812.537719) can0 272#000000000000
(1677782812.538004) can0 555#0000000003000000
(1677782812.538429) can0 271#00000000001E
(1677782812.538650) can0 258#000000000000
(1677782812.551813) can0 1FA#0000000000000000
(1677782812.552065) can0 1FB#0000000000000000
(1677782812.552317) can0 1FC#0000000000000000
(1677782812.562328) can0 310#2000000000000000
(1677782812.562444) can0 259#000000000000
(1677782812.576830) can0 200#0000000000000000
(1677782812.577082) can0 201#0000000000000000
(1677782812.577330) can0 202#0000000000000000
(1677782812.587322) can0 310#2000000000000000
(1677782812.587499) can0 25A#000000000000
(1677782812.601816) can0 206#0000000000000000
(1677782812.602067) can0 207#0000000000000000
(1677782812.602321) can0 208#0000000000000000
(1677782812.612320) can0 310#2000000000000000
(1677782812.612513) can0 25B#000000000000
(1677782812.626814) can0 20C#0000000000000000
(1677782812.627072) can0 20D#0000000000000000
(1677782812.627314) can0 20E#0000000000000000
(1677782812.637369) can0 310#2000000000000000
(1677782812.637622) can0 270#0000000000000000
(1677782812.637736) can0 272#000000000000
(1677782812.638020) can0 555#0000000003000000
(1677782812.638427) can0 271#00000000001E
(1677782812.638642) can0 25C#000000000000
(1677782812.651782) can0 212#CD64EF64D264DA64
(1677782812.652007) can0 213#C1646B64BE644865
(1677782812.652233) can0 214#6F648665B464DB64
(1677782812.662313) can0 310#2000000000000000
(1677782812.662505) can0 25D#000000000000
(1677782812.676812) can0 218#0000000000000000
(1677782812.677063) can0 219#0000000000000000
(1677782812.677309) can0 21A#0000000000000000
(1677782812.687315) can0 310#2000000000000000
(1677782812.687431) can0 25E#230023232323
(1677782812.701806) can0 21E#0000000000000000
(1677782812.702057) can0 21F#0000000000000000
(1677782812.702307) can0 220#0000000000000000
(1677782812.712319) can0 310#2000000000000000
(1677782812.712434) can0 25F#230023232300
(1677782812.726810) can0 224#0000000000000000
(1677782812.727066) can0 225#0000000000000000
(1677782812.727310) can0 226#0000000000000000
(1677782812.737349) can0 310#2000000000000000
(1677782812.737602) can0 270#0000000000000000
(1677782812.737716) can0 272#000000000000
(1677782812.738013) can0 555#0000000003000000
(1677782812.738427) can0 271#00000000001E
(1677782812.738631) can0 260#310000000031
(1677782812.751804) can0 22A#0000000000000000
(1677782812.752054) can0 22B#0000000000000000
(1677782812.752305) can0 22C#0000000000000000
(1677782812.762324) can0 310#2000000000000000
(1677782812.762440) can0 261#000031000000
(1677782812.776813) can0 230#0000000000000000
(1677782812.777067) can0 231#0000000000000000
(1677782812.777310) can0 232#0000000000000000
(1677782812.787317) can0 310#2000000000000000
(1677782812.787433) can0 262#282828282828
(1677782812.801807) can0 236#0000000000000000
(1677782812.802054) can0 237#0000000000000000
(1677782812.802304) can0 238#0000000000000000
(1677782812.812317) can0 310#2000000000000000
(1677782812.812433) can0 263#282828282828
(1677782812.826811) can0 1F4#0000000000000000
(1677782812.827062) can0 1F5#0000000000000000
(1677782812.827310) can0 1F6#0000000000000000
(1677782812.837336) can0 310#2000000000000000
(1677782812.837589) can0 270#0000000000000000
(1677782812.837704) can0 272#000000000000
(1677782812.837987) can0 555#0000000003000000
(1677782812.838426) can0 271#00000000001E
(1677782812.838633) can0 264#310200000031
(1677782812.851809) can0 1FA#0000000000000000
(1677782812.852061) can0 1FB#0000000000000000
(1677782812.852313) can0 1FC#0000000000000000
(1677782812.862309) can0 310#2000000000000000
(1677782812.862503) can0 265#000034000000
(1677782812.876822) can0 200#0000000000000000
(1677782812.877075) can0 201#0000000000000000
(1677782812.877323) can0 202#0000000000000000
(1677782812.887317) can0 310#2000000000000000
(1677782812.887433) can0 266#220022222222
(1677782812.901808) can0 206#0000000000000000
(1677782812.902059) can0 207#0000000000000000
(1677782812.902313) can0 208#0000000000000000
(1677782812.912315) can0 310#2000000000000000
(1677782812.912430) can0 267#220022222200
(1677782812.926815) can0 20C#0000000000000000
(1677782812.927067) can0 20D#0000000000000000
(1677782812.927314) can0 20E#0000000000000000
(1677782812.937368) can0 310#2000000000000000
(1677782812.937621) can0 270#0000000000000000
(1677782812.937735) can0 272#000000000000
(1677782812.938017) can0 555#0000000003000000
(1677782812.938426) can0 271#00000000001E
(1677782812.938626) can0 268#370037373737
(1677782812.951781) can0 212#CD64F064D364D864
(1677782812.952007) can0 213#C0646C64BE644865
(1677782812.952233) can0 214#6F648565B364DA64
(1677782812.962319) can0 310#2000000000000000
(1677782812.962435) can0 269#370037373700
(1677782812.976812) can0 218#0000000000000000
(1677782812.977063) can0 219#0000000000000000
(1677782812.977307) can0 21A#0000000000000000
(1677782812.987319) can0 310#2000000000000000
(1677782812.987514) can0 26A#000000000000
(1677782813.001804) can0 21E#0000000000000000
(1677782813.002056) can0 21F#0000000000000000
(1677782813.002305) can0 220#0000000000000000
(1677782813.012316) can0 310#2000000000000000
(1677782813.012509) can0 26B#000000000000
(1677782813.026808) can0 224#0000000000000000
(1677782813.027061) can0 225#0000000000000000
(1677782813.027306) can0 226#0000000000000000
(1677782813.037345) can0 310#2000000000000000
(1677782813.037598) can0 270#0000000000000000
(1677782813.037712) can0 272#000000000000
(1677782813.037997) can0 555#0000000003000000
(1677782813.038435) can0 271#00000000001E
(1677782813.038627) can0 26C#000000000000
(1677782813.051821) can0 22A#0000000000000000
(1677782813.052048) can0 22B#0000000000000000
(1677782813.052299) can0 22C#0000000000000000
(1677782813.062313) can0 310#2000000000000000
(1677782813.062489) can0 26D#000000000000
(1677782813.076807) can0 230#0000000000000000
(1677782813.077068) can0 231#0000000000000000
(1677782813.077311) can0 232#0000000000000000
(1677782813.087318) can0 310#2000000000000000
(1677782813.087512) can0 26E#000000000000
(1677782813.101803) can0 236#0000000000000000
(1677782813.102050) can0 237#0000000000000000
(1677782813.102300) can0 238#0000000000000000
(1677782813.112315) can0 310#2000000000000000
(1677782813.112508) can0 26F#000000000000
(1677782813.126809) can0 1F4#0000000000000000
(1677782813.127062) can0 1F5#0000000000000000
(1677782813.127305) can0 1F6#0000000000000000
(1677782813.137344) can0 310#2000000000000000
(1677782813.137598) can0 270#0000000000000000
(1677782813.137712) can0 272#000000000000
(1677782813.137993) can0 555#0000000003000000
(1677782813.138418) can0 271#00000000001E
(1677782813.138639) can0 258#000000000000
(1677782813.151804) can0 1FA#0000000000000000
(1677782813.152055) can0 1FB#0000000000000000
(1677782813.152308) can0 1FC#0000000000000000
(1677782813.162320) can0 310#2000000000000000
(1677782813.162436) can0 259#000000000000
(1677782813.176815) can0 200#0000000000000000
(1677782813.177068) can0 201#0000000000000000
(1677782813.177314) can0 202#0000000000000000
(1677782813.187312) can0 310#2000000000000000
(1677782813.187506) can0 25A#000000000000
(1677782813.201805) can0 206#0000000000000000
(1677782813.202056) can0 207#0000000000000000
(1677782813.202310) can0 208#0000000000000000
(1677782813.212314) can0 310#2000000000000000
(1677782813.212506) can0 25B#000000000000
(1677782813.226805) can0 20C#0000000000000000
(1677782813.227056) can0 20D#0000000000000000
(1677782813.227304) can0 20E#0000000000000000
(1677782813.237361) can0 310#2000000000000000
(1677782813.237613) can0 270#0000000000000000
(1677782813.237727) can0 272#000000000000
(1677782813.238012) can0 555#0000000003000000
(1677782813.238418) can0 271#00000000001E
(1677782813.238631) can0 25C#000000000000
(1677782813.251783) can0 212#CD64F064D264DA64
(1677782813.252007) can0 213#C0646B64BE644765
(1677782813.252230) can0 214#6E648665B664DB64
(1677782813.262310) can0 310#2000000000000000
(1677782813.262503) can0 25D#000000000000
(1677782813.276804) can0 218#0000000000000000
(1677782813.277055) can0 219#0000000000000000
(1677782813.277301) can0 21A#0000000000000000
(1677782813.287436) can0 310#2000000000000000
(1677782813.287549) can0 25E#230023232323
(1677782813.301801) can0 21E#0000000000000000
(1677782813.302051) can0 21F#0000000000000000
(1677782813.302301) can0 220#0000000000000000
(1677782813.312313) can0 310#2000000000000000
(1677782813.312429) can0 25F#230023232300
(1677782813.326802) can0 224#0000000000000000
(1677782813.327058) can0 225#0000000000000000
(1677782813.327302) can0 226#0000000000000000
(1677782813.337343) can0 310#2000000000000000
(1677782813.337596) can0 270#0000000000000000
(1677782813.337710) can0 272#000000000000
(1677782813.337992) can0 555#0000000003000000
(1677782813.338418) can0 271#00000000001E
(1677782813.338642) can0 260#310000000031
(1677782813.351798) can0 22A#0000000000000000
(1677782813.352045) can0 22B#0000000000000000
(1677782813.352297) can0 22C#0000000000000000
(1677782813.362313) can0 310#2000000000000000
(1677782813.362429) can0 261#000031000000
(1677782813.376806) can0 230#0000000000000000
(1677782813.377058) can0 231#0000000000000000
(1677782813.377304) can0 232#0000000000000000
(1677782813.387311) can0 310#2000000000000000
(1677782813.387427) can0 262#282828282828
(1677782813.401804) can0 236#0000000000000000
(1677782813.402046) can0 237#0000000000000000
(1677782813.402296) can0 238#0000000000000000
(1677782813.412299) can0 310#2000000000000000
(1677782813.412489) can0 263#282828282828
(1677782813.426807) can0 1F4#0000000000000000
(1677782813.427057) can0 1F5#0000000000000000
(1677782813.427305) can0 1F6#0000000000000000
(1677782813.437342) can0 310#2000000000000000
(1677782813.437595) can0 270#0000000000000000
(1677782813.437709) can0 272#000000000000
(1677782813.437990) can0 555#0000000003000000
(1677782813.438416) can0 271#00000000001E
(1677782813.438625) can0 264#310200000031
(1677782813.451800) can0 1FA#0000000000000000
(1677782813.452051) can0 1FB#0000000000000000
(1677782813.452303) can0 1FC#0000000000000000
(1677782813.462309) can0 310#2000000000000000
(1677782813.462425) can0 265#000034000000
(1677782813.476817) can0 200#0000000000000000
(1677782813.477071) can0 201#0000000000000000
(1677782813.477319) can0 202#0000000000000000
(1677782813.487307) can0 310#2000000000000000
(1677782813.487425) can0 266#220022222222
(1677782813.501800) can0 206#0000000000000000
(1677782813.502053) can0 207#0000000000000000
(1677782813.502309) can0 208#0000000000000000
(1677782813.512291) can0 310#2000000000000000
(1677782813.512479) can0 267#220022222200
(1677782813.526803) can0 20C#0000000000000000
(1677782813.527067) can0 20D#0000000000000000
(1677782813.527298) can0 20E#0000000000000000
(1677782813.537354) can0 310#2000000000000000
(1677782813.537604) can0 270#0000000000000000
(1677782813.537717) can0 272#000000000000
(1677782813.538012) can0 555#0000000003000000
(1677782813.538420) can0 271#00000000001E
(1677782813.538605) can0 268#370037373737
(1677782813.551773) can0 212#CD64EF64D364DA64
(1677782813.551992) can0 213#C1646C64BE644765
(1677782813.552231) can0 214#6F648665B464DA64
(1677782813.562316) can0 310#2000000000000000
(1677782813.562437) can0 269#370037373700
(1677782813.576807) can0 218#0000000000000000
(1677782813.577065) can0 219#0000000000000000
(1677782813.577294) can0 21A#0000000000000000
(1677782813.587310) can0 310#2000000000000000
(1677782813.587432) can0 26A#000000000000
(1677782813.601797) can0 21E#0000000000000000
(1677782813.602048) can0 21F#0000000000000000
(1677782813.602298) can0 220#0000000000000000
(1677782813.612310) can0 310#2000000000000000
(1677782813.612432) can0 26B#000000000000
(1677782813.626801) can0 224#0000000000000000
(1677782813.627057) can0 225#0000000000000000
(1677782813.627304) can0 226#0000000000000000
(1677782813.637339) can0 310#2000000000000000
(1677782813.637597) can0 270#0000000000000000
(1677782813.637710) can0 272#000000000000
(1677782813.637988) can0 555#0000000003000000
(1677782813.638414) can0 271#00000000001E
(1677782813.638622) can0 26C#000000000000
(1677782813.651796) can0 22A#0000000000000000
(1677782813.652046) can0 22B#0000000000000000
(1677782813.652298) can0 22C#0000000000000000
(1677782813.662289) can0 310#2000000000000000
(1677782813.662477) can0 26D#000000000000
(1677782813.676808) can0 230#0000000000000000
(1677782813.677059) can0 231#0000000000000000
(1677782813.677306) can0 232#0000000000000000
(1677782813.687310) can0 310#2000000000000000
(1677782813.687432) can0 26E#000000000000
(1677782813.701797) can0 236#0000000000000000
(1677782813.702047) can0 237#0000000000000000
(1677782813.702294) can0 238#0000000000000000
(1677782813.712291) can0 310#2000000000000000
(1677782813.712480) can0 26F#000000000000
(1677782813.726803) can0 1F4#0000000000000000
(1677782813.727060) can0 1F5#0000000000000000
(1677782813.727306) can0 1F6#0000000000000000
(1677782813.737332) can0 310#2000000000000000
(1677782813.737590) can0 270#0000000000000000
(1677782813.737703) can0 272#000000000000
(1677782813.737987) can0 555#0000000003000000
(1677782813.738415) can0 271#00000000001E
(1677782813.738621) can0 258#000000000000
(1677782813.751799) can0 1FA#0000000000000000
(1677782813.752062) can0 1FB#0000000000000000
(1677782813.752314) can0 1FC#0000000000000000
(1677782813.762286) can0 310#2000000000000000
(1677782813.762475) can0 259#000000000000
(1677782813.776814) can0 200#0000000000000000
(1677782813.777057) can0 201#0000000000000000
(1677782813.777313) can0 202#0000000000000000
(1677782813.787298) can0 310#2000000000000000
(1677782813.787489) can0 25A#000000000000
(1677782813.801799) can0 206#0000000000000000
(1677782813.802050) can0 207#0000000000000000
(1677782813.802303) can0 208#0000000000000000
(1677782813.812307) can0 310#2000000000000000
(1677782813.812429) can0 25B#000000000000
(1677782813.826798) can0 20C#0000000000000000
(1677782813.827057) can0 20D#0000000000000000
(1677782813.827306) can0 20E#0000000000000000
(1677782813.837351) can0 310#2000000000000000
(1677782813.837601) can0 270#0000000000000000
(1677782813.837714) can0 272#000000000000
(1677782813.838004) can0 555#0000000003000000
(1677782813.838414) can0 271#00000000001E
(1677782813.838617) can0 25C#000000000000
(1677782813.851787) can0 212#CD64F064D464DB64
(1677782813.852008) can0 213#C2646C64BF644965
(1677782813.852220) can0 214#6F648665B564DA64
(1677782813.862307) can0 310#2000000000000000
(1677782813.862423) can0 25D#000000000000
(1677782813.876800) can0 218#0000000000000000
(1677782813.877055) can0 219#0000000000000000
(1677782813.877296) can0 21A#0000000000000000
(1677782813.887310) can0 310#2000000000000000
(1677782813.887425) can0 25E#230023232323
(1677782813.901795) can0 21E#0000000000000000
(1677782813.902046) can0 21F#0000000000000000
(1677782813.902296) can0 220#0000000000000000
(1677782813.912307) can0 310#2000000000000000
(1677782813.912423) can0 25F#230023232300
(1677782813.926798) can0 224#0000000000000000
(1677782813.927054) can0 225#0000000000000000
(1677782813.927298) can0 226#0000000000000000
(1677782813.937337) can0 310#2000000000000000
(1677782813.937515) can0 270#0000000000000000
(1677782813.937732) can0 272#000000000000
(1677782813.937986) can0 555#0000000003000000
(1677782813.938413) can0 271#00000000001E
(1677782813.938630) can0 260#310000000031
(1677782813.951808) can0 22A#0000000000000000
(1677782813.952050) can0 22B#0000000000000000
(1677782813.952293) can0 22C#0000000000000000
(1677782813.962282) can0 310#2000000000000000
(1677782813.962460) can0 261#000031000000
(1677782813.976801) can0 230#0000000000000000
(1677782813.977055) can0 231#0000000000000000
(1677782813.977298) can0 232#0000000000000000
(1677782813.987279) can0 310#2000000000000000
(1677782813.987451) can0 262#282828282828
(1677782814.001792) can0 236#0000000000000000
(1677782814.002040) can0 237#0000000000000000
(1677782814.002291) can0 238#0000000000000000
(1677782814.012283) can0 310#2000000000000000
(1677782814.012454) can0 263#282828282828
(1677782814.026796) can0 1F4#0000000000000000
(1677782814.027050) can0 1F5#0000000000000000
(1677782814.027298) can0 1F6#0000000000000000
(1677782814.037323) can0 310#2000000000000000
(1677782814.037661) can0 270#0000000000000000
(1677782814.037771) can0 272#000000000000
(1677782814.037991) can0 555#0000000003000000
(1677782814.038410) can0 271#00000000001E
(1677782814.038626) can0 264#310200000031
(1677782814.051807) can0 1FA#0000000000000000
(1677782814.052044) can0 1FB#0000000000000000
(1677782814.052296) can0 1FC#0000000000000000
(1677782814.062273) can0 310#2000000000000000
(1677782814.062450) can0 265#000034000000
(1677782814.076808) can0 200#0000000000000000
(1677782814.077063) can0 201#0000000000000000
(1677782814.077309) can0 202#0000000000000000
(1677782814.087279) can0 310#2000000000000000
(1677782814.087451) can0 266#220022222222
(1677782814.101793) can0 206#0000000000000000
(1677782814.102045) can0 207#0000000000000000
(1677782814.102299) can0 208#0000000000000000
(1677782814.112282) can0 310#2000000000000000
(1677782814.112455) can0 267#220022222200
(1677782814.126793) can0 20C#0000000000000000
(1677782814.127049) can0 20D#0000000000000000
(1677782814.127295) can0 20E#0000000000000000
(1677782814.137351) can0 310#2000000000000000
(1677782814.137530) can0 270#0000000000000000
(1677782814.137761) can0 272#000000000000
(1677782814.138000) can0 555#0000000003000000
(1677782814.138409) can0 271#00000000001E
(1677782814.138597) can0 268#370037373737
(1677782814.151779) can0 212#CD64F064D264D964
(1677782814.151985) can0 213#C0646B64BD644865
(1677782814.152214) can0 214#6E648665B364D964
(1677782814.162278) can0 310#2000000000000000
(1677782814.162451) can0 269#370037373700
(1677782814.176799) can0 218#0000000000000000
(1677782814.177050) can0 219#0000000000000000
(1677782814.177293) can0 21A#0000000000000000
(1677782814.187279) can0 310#2000000000000000
(1677782814.187465) can0 26A#000000000000
(1677782814.201790) can0 21E#0000000000000000
(1677782814.202037) can0 21F#0000000000000000
(1677782814.202289) can0 220#0000000000000000
(1677782814.212281) can0 310#2000000000000000
(1677782814.212461) can0 26B#000000000000
(1677782814.226797) can0 224#0000000000000000
(1677782814.227058) can0 225#0000000000000000
(1677782814.227281) can0 226#0000000000000000
(1677782814.237330) can0 310#2000000000000000
(1677782814.237586) can0 270#0000000000000000
(1677782814.237693) can0 272#000000000000
(1677782814.237974) can0 555#0000000003000000
(1677782814.238410) can0 271#00000000001E
(1677782814.238610) can0 26C#000000000000
(1677782814.251807) can0 22A#0000000000000000
(1677782814.252028) can0 22B#0000000000000000
(1677782814.252296) can0 22C#0000000000000000
(1677782814.262277) can0 310#2000000000000000
(1677782814.262459) can0 26D#000000000000
(1677782814.276799) can0 230#0000000000000000
(1677782814.277049) can0 231#0000000000000000
(1677782814.277295) can0 232#0000000000000000
(1677782814.287277) can0 310#2000000000000000
(1677782814.287463) can0 26E#000000000000
(1677782814.301788) can0 236#0000000000000000
(1677782814.302032) can0 237#0000000000000000
(1677782814.302275) can0 238#0000000000000000
(1677782814.312276) can0 310#2000000000000000
(1677782814.312457) can0 26F#000000000000
(1677782814.326794) can0 1F4#0000000000000000
(1677782814.327051) can0 1F5#0000000000000000
(1677782814.327298) can0 1F6#0000000000000000
(1677782814.337332) can0 310#2000000000000000
(1677782814.337579) can0 270#0000000000000000
(1677782814.337686) can0 272#000000000000
(1677782814.337988) can0 555#0000000003000000
(1677782814.338408) can0 271#00000000001E
(1677782814.338606) can0 258#000000000000
(1677782814.351793) can0 1FA#0000000000000000
(1677782814.352028) can0 1FB#0000000000000000
(1677782814.352280) can0 1FC#0000000000000000
(1677782814.362277) can0 310#2000000000000000
(1677782814.362457) can0 259#000000000000
(1677782814.376805) can0 200#0000000000000000
(1677782814.377055) can0 201#0000000000000000
(1677782814.377298) can0 202#0000000000000000
(1677782814.387276) can0 310#2000000000000000
(1677782814.387462) can0 25A#000000000000
(1677782814.401791) can0 206#0000000000000000
(1677782814.402035) can0 207#0000000000000000
(1677782814.402299) can0 208#0000000000000000
(1677782814.412277) can0 310#2000000000000000
(1677782814.412458) can0 25B#000000000000
(1677782814.426791) can0 20C#0000000000000000
(1677782814.427048) can0 20D#0000000000000000
(1677782814.427289) can0 20E#0000000000000000
(1677782814.437347) can0 310#2000000000000000
(1677782814.437595) can0 270#0000000000000000
(1677782814.437703) can0 272#000000000000
(1677782814.438003) can0 555#0000000003000000
(1677782814.438407) can0 271#00000000001E
(1677782814.438603) can0 25C#000000000000
(1677782814.451764) can0 212#CD64EF64D364D964
(1677782814.451994) can0 213#C0646B64BE644865
(1677782814.452203) can0 214#6E648465B464DB64
(1677782814.462276) can0 310#2000000000000000
(1677782814.462456) can0 25D#000000000000
(1677782814.476789) can0 218#0000000000000000
(1677782814.477052) can0 219#0000000000000000
(1677782814.477276) can0 21A#0000000000000000
(1677782814.487270) can0 310#2000000000000000
(1677782814.487449) can0 25E#230023232323
(1677782814.501786) can0 21E#0000000000000000
(1677782814.502030) can0 21F#0000000000000000
(1677782814.502293) can0 220#0000000000000000
(1677782814.512272) can0 310#2000000000000000
(1677782814.512452) can0 25F#230023232300
(1677782814.526796) can0 224#0000000000000000
(1677782814.527062) can0 225#0000000000000000
(1677782814.527284) can0 226#0000000000000000
(1677782814.537323) can0 310#2000000000000000
(1677782814.537581) can0 270#0000000000000000
(1677782814.537694) can0 272#000000000000
(1677782814.537987) can0 555#0000000003000000
(1677782814.538405) can0 271#00000000001E
(1677782814.538609) can0 260#310000000031
(1677782814.551790) can0 22A#0000000000000000
(1677782814.552055) can0 22B#0000000000000000
(1677782814.552285) can0 22C#0000000000000000
(1677782814.562293) can0 310#2000000000000000
(1677782814.562416) can0 261#000031000000
(1677782814.576798) can0 230#0000000000000000
(1677782814.577057) can0 231#0000000000000000
(1677782814.577305) can0 232#0000000000000000
(1677782814.587301) can0 310#2000000000000000
(1677782814.587424) can0 262#282828282828
(1677782814.601788) can0 236#0000000000000000
(1677782814.602038) can0 237#0000000000000000
(1677782814.602286) can0 238#0000000000000000
(1677782814.612296) can0 310#2000000000000000
(1677782814.612417) can0 263#282828282828
(1677782814.626791) can0 1F4#0000000000000000
(1677782814.627047) can0 1F5#0000000000000000
(1677782814.627295) can0 1F6#0000000000000000
(1677782814.637326) can0 310#2000000000000000
(1677782814.637584) can0 270#0000000000000000
(1677782814.637697) can0 272#000000000000
(1677782814.637979) can0 555#0000000003000000
(1677782814.638405) can0 271#00000000001E
(1677782814.638608) can0 264#310200000031
(1677782814.651787) can0 1FA#0000000000000000
(1677782814.652038) can0 1FB#0000000000000000
(1677782814.652281) can0 1FC#0000000000000000
(1677782814.662222) can0 310#2000000000000000
(1677782814.662418) can0 265#000034000000
(1677782814.676753) can0 200#0000000000000000
(1677782814.677003) can0 201#0000000000000000
(1677782814.677253) can0 202#0000000000000000
(1677782814.687220) can0 310#2000000000000000
(1677782814.687411) can0 266#220022222222
(1677782814.701743) can0 206#0000000000000000
(1677782814.701996) can0 207#0000000000000000
(1677782814.702249) can0 208#0000000000000000
(1677782814.712220) can0 310#2000000000000000
(1677782814.712411) can0 267#220022222200
(1677782814.726743) can0 20C#0000000000000000
(1677782814.726996) can0 20D#0000000000000000
(1677782814.727245) can0 20E#0000000000000000
(1677782814.737279) can0 310#2000000000000000
(1677782814.737494) can0 270#0000000000000000
(1677782814.737705) can0 272#000000000000
(1677782814.737951) can0 555#0000000003000000
(1677782814.738360) can0 271#00000000001E
(1677782814.738555) can0 268#370037373737
(1677782814.751716) can0 212#CE64F064D364D964
(1677782814.751944) can0 213#C0646B64BE644865
(1677782814.752168) can0 214#6E648665B464DB64
(1677782814.762295) can0 310#2000000000000000
(1677782814.762418) can0 269#370037373700
(1677782814.776790) can0 218#0000000000000000
(1677782814.777045) can0 219#0000000000000000
(1677782814.777292) can0 21A#0000000000000000
(1677782814.787293) can0 310#2000000000000000
(1677782814.787415) can0 26A#000000000000
(1677782814.801783) can0 21E#0000000000000000
(1677782814.802034) can0 21F#0000000000000000
(1677782814.802284) can0 220#0000000000000000
(1677782814.812292) can0 310#2000000000000000
(1677782814.812481) can0 26B#000000000000
(1677782814.826783) can0 224#0000000000000000
(1677782814.827039) can0 225#0000000000000000
(1677782814.827285) can0 226#0000000000000000
(1677782814.837326) can0 310#2000000000000000
(1677782814.837576) can0 270#0000000000000000
(1677782814.837688) can0 272#000000000000
(1677782814.837976) can0 555#0000000003000000
(1677782814.838401) can0 271#00000000001E
(1677782814.838608) can0 26C#000000000000
(1677782814.851780) can0 22A#0000000000000000
(1677782814.852029) can0 22B#0000000000000000
(1677782814.852281) can0 22C#0000000000000000
(1677782814.862273) can0 310#2000000000000000
(1677782814.862462) can0 26D#000000000000
(1677782814.876793) can0 230#0000000000000000
(1677782814.877046) can0 231#0000000000000000
(1677782814.877291) can0 232#0000000000000000
(1677782814.887290) can0 310#2000000000000000
(1677782814.887411) can0 26E#000000000000
(1677782814.901784) can0 236#0000000000000000
(1677782814.902037) can0 237#0000000000000000
(1677782814.902283) can0 238#0000000000000000
(1677782814.912288) can0 310#2000000000000000
(1677782814.912411) can0 26F#000000000000
(1677782814.926788) can0 1F4#0000000000000000
(1677782814.927041) can0 1F5#0000000000000000
(1677782814.927289) can0 1F6#0000000000000000
(1677782814.937318) can0 310#2000000000000000
(1677782814.937577) can0 270#0000000000000000
(1677782814.937689) can0 272#000000000000
(1677782814.937974) can0 555#0000000003000000
(1677782814.938401) can0 271#00000000001E
(1677782814.938608) can0 258#000000000000
(1677782814.951784) can0 1FA#0000000000000000
(1677782814.952035) can0 1FB#0000000000000000
(1677782814.952288) can0 1FC#0000000000000000
(1677782814.962295) can0 310#2000000000000000
(1677782814.962419) can0 259#000000000000
(1677782814.976801) can0 200#0000000000000000
(1677782814.977056) can0 201#0000000000000000
(1677782814.977304) can0 202#0000000000000000
(1677782814.987294) can0 310#2000000000000000
(1677782814.987416) can0 25A#000000000000
(1677782815.001784) can0 206#0000000000000000
(1677782815.002036) can0 207#0000000000000000
(1677782815.002290) can0 208#0000000000000000
(1677782815.012290) can0 310#2000000000000000
(1677782815.012413) can0 25B#000000000000
(1677782815.026782) can0 20C#0000000000000000
(1677782815.027039) can0 20D#0000000000000000
(1677782815.027287) can0 20E#0000000000000000
(1677782815.037336) can0 310#2000000000000000
(1677782815.037586) can0 270#0000000000000000
(1677782815.037698) can0 272#000000000000
(1677782815.037990) can0 555#0000000003000000
(1677782815.038400) can0 271#00000000001E
(1677782815.038606) can0 25C#000000000000
(1677782815.051753) can0 212#CD64EF64D264D964
(1677782815.051975) can0 213#C1646C64BD644865
(1677782815.052193) can0 214#6E648565B464DB64
(1677782815.062288) can0 310#2000000000000000
(1677782815.062410) can0 25D#000000000000
(1677782815.076783) can0 218#0000000000000000
(1677782815.077037) can0 219#0000000000000000
(1677782815.077285) can0 21A#0000000000000000
(1677782815.087291) can0 310#2000000000000000
(1677782815.087412) can0 25E#230023232323
(1677782815.101779) can0 21E#0000000000000000
(1677782815.102031) can0 21F#0000000000000000
(1677782815.102281) can0 220#0000000000000000
(1677782815.112288) can0 310#2000000000000000
(1677782815.112410) can0 25F#230023232300
(1677782815.126782) can0 224#0000000000000000
(1677782815.127039) can0 225#0000000000000000
(1677782815.127285) can0 226#0000000000000000
(1677782815.137318) can0 310#2000000000000000
(1677782815.137568) can0 270#0000000000000000
(1677782815.137681) can0 272#000000000000
(1677782815.137971) can0 555#0000000003000000
(1677782815.138397) can0 271#00000000001E
(1677782815.138601) can0 260#310000000031
(1677782815.151778) can0 22A#0000000000000000
(1677782815.152027) can0 22B#0000000000000000
(1677782815.152279) can0 22C#0000000000000000
(1677782815.162282) can0 310#2000000000000000
(1677782815.162405) can0 261#000031000000
(1677782815.176790) can0 230#0000000000000000
(1677782815.177071) can0 231#0000000000000000
(1677782815.177290) can0 232#0000000000000000
(1677782815.187294) can0 310#2000000000000000
(1677782815.187417) can0 262#282828282828
(1677782815.201784) can0 236#0000000000000000
(1677782815.202044) can0 237#0000000000000000
(1677782815.202273) can0 238#0000000000000000
(1677782815.212282) can0 310#2000000000000000
(1677782815.212404) can0 263#282828282828
(1677782815.226783) can0 1F4#0000000000000000
(1677782815.227042) can0 1F5#0000000000000000
(1677782815.227289) can0 1F6#0000000000000000
(1677782815.237314) can0 310#2000000000000000
(1677782815.237572) can0 270#0000000000000000
(1677782815.237684) can0 272#000000000000
(1677782815.237968) can0 555#0000000003000000
(1677782815.238395) can0 271#00000000001E
(1677782815.238600) can0 264#310200000031
(1677782815.251780) can0 1FA#0000000000000000
(1677782815.252031) can0 1FB#0000000000000000
(1677782815.252283) can0 1FC#0000000000000000
(1677782815.262276) can0 310#2000000000000000
(1677782815.262465) can0 265#000034000000
(1677782815.276798) can0 200#0000000000000000
(1677782815.277052) can0 201#0000000000000000
(1677782815.277299) can0 202#0000000000000000
(1677782815.287286) can0 310#2000000000000000
(1677782815.287407) can0 266#220022222222
(1677782815.301778) can0 206#0000000000000000
(1677782815.302029) can0 207#0000000000000000
(1677782815.302283) can0 208#0000000000000000
(1677782815.312274) can0 310#2000000000000000
(1677782815.312397) can0 267#220022222200
(1677782815.326778) can0 20C#0000000000000000
(1677782815.327028) can0 20D#0000000000000000
(1677782815.327279) can0 20E#0000000000000000
(1677782815.337328) can0 310#2000000000000000
(1677782815.337578) can0 270#0000000000000000
(1677782815.337691) can0 272#000000000000
(1677782815.337985) can0 555#0000000003000000
(1677782815.338394) can0 271#00000000001E
(1677782815.338587) can0 268#370037373737
(1677782815.351753) can0 212#CE64F064D364D964
(1677782815.351973) can0 213#C0646B64BF644965
(1677782815.352212) can0 214#6E648565B464DA64
(1677782815.362274) can0 310#2000000000000000
(1677782815.362395) can0 269#370037373700
(1677782815.376779) can0 218#0000000000000000
(1677782815.377035) can0 219#0000000000000000
(1677782815.377280) can0 21A#0000000000000000
(1677782815.387275) can0 310#2000000000000000
(1677782815.387463) can0 26A#000000000000
(1677782815.401775) can0 21E#0000000000000000
(1677782815.402026) can0 21F#0000000000000000
(1677782815.402276) can0 220#0000000000000000
(1677782815.412287) can0 310#2000000000000000
(1677782815.412408) can0 26B#000000000000
(1677782815.426779) can0 224#0000000000000000
(1677782815.427035) can0 225#0000000000000000
(1677782815.427281) can0 226#0000000000000000
(1677782815.437315) can0 310#2000000000000000
(1677782815.437565) can0 270#0000000000000000
(1677782815.437678) can0 272#000000000000
(1677782815.437966) can0 555#0000000003000000
(1677782815.438392) can0 271#00000000001E
(1677782815.438600) can0 26C#000000000000
(1677782815.451772) can0 22A#0000000000000000
(1677782815.452021) can0 22B#0000000000000000
(1677782815.452273) can0 22C#0000000000000000
(1677782815.462276) can0 310#2000000000000000
(1677782815.462464) can0 26D#000000000000
(1677782815.476783) can0 230#0000000000000000
(1677782815.477035) can0 231#0000000000000000
(1677782815.477281) can0 232#0000000000000000
(1677782815.487290) can0 310#2000000000000000
(1677782815.487411) can0 26E#000000000000
(1677782815.501774) can0 236#0000000000000000
(1677782815.502021) can0 237#0000000000000000
(1677782815.502271) can0 238#0000000000000000
(1677782815.512286) can0 310#2000000000000000
(1677782815.512407) can0 26F#000000000000
(1677782815.526782) can0 1F4#0000000000000000
(1677782815.527030) can0 1F5#0000000000000000
(1677782815.527284) can0 1F6#0000000000000000
(1677782815.537306) can0 310#2000000000000000
(1677782815.537556) can0 270#0000000000000000
(1677782815.537668) can0 272#000000000000
(1677782815.537962) can0 555#0000000003000000
(1677782815.538392) can0 271#00000000001E
(1677782815.538598) can0 258#000000000000
(1677782815.551774) can0 1FA#0000000000000000
(1677782815.552025) can0 1FB#0000000000000000
(1677782815.552278) can0 1FC#0000000000000000
(1677782815.562264) can0 310#2000000000000000
(1677782815.562449) can0 259#000000000000
(1677782815.576794) can0 200#0000000000000000
(1677782815.577056) can0 201#0000000000000000
(1677782815.577300) can0 202#0000000000000000
(1677782815.587299) can0 310#2000000000000000
(1677782815.587414) can0 25A#000000000000
(1677782815.601774) can0 206#0000000000000000
(1677782815.602024) can0 207#0000000000000000
(1677782815.602279) can0 208#0000000000000000
(1677782815.612266) can0 310#2000000000000000
(1677782815.612473) can0 25B#000000000000
(1677782815.626771) can0 20C#0000000000000000
(1677782815.627027) can0 20D#0000000000000000
(1677782815.627273) can0 20E#0000000000000000
(1677782815.637339) can0 310#2000000000000000
(1677782815.637517) can0 270#0000000000000000
(1677782815.637727) can0 272#000000000000
(1677782815.637983) can0 555#0000000003000000
(1677782815.651741) can0 212#CD64EF64D364D964
(1677782815.651974) can0 213#C0646C64BE644765
(1677782815.652192) can0 214#6E648665B464DB64
(1677782815.662264) can0 310#2000000000000000
(1677782815.662442) can0 25D#000000000000
(1677782815.676769) can0 218#0000000000000000
(1677782815.677058) can0 219#0000000000000000
(1677782815.677264) can0 21A#0000000000000000
(1677782815.687265) can0 310#2000000000000000
(1677782815.687438) can0 25E#230023232323
(1677782815.701767) can0 21E#0000000000000000
(1677782815.702021) can0 21F#0000000000000000
(1677782815.702268) can0 220#0000000000000000
(1677782815.712263) can0 310#2000000000000000
(1677782815.712434) can0 25F#230023232300
(1677782815.726772) can0 224#0000000000000000
(1677782815.727023) can0 225#0000000000000000
(1677782815.727271) can0 226#0000000000000000
(1677782815.737316) can0 310#2000000000000000
(1677782815.737495) can0 270#0000000000000000
(1677782815.737724) can0 272#000000000000
(1677782815.737964) can0 555#0000000003000000
(1677782815.738387) can0 271#00000000001E
(1677782815.738602) can0 260#310000000031
(1677782815.751771) can0 22A#0000000000000000
(1677782815.752017) can0 22B#0000000000000000
(1677782815.752269) can0 22C#0000000000000000
(1677782815.762263) can0 310#2000000000000000
(1677782815.762441) can0 261#000031000000
(1677782815.776772) can0 230#0000000000000000
(1677782815.777026) can0 231#0000000000000000
(1677782815.777270) can0 232#0000000000000000
(1677782815.787267) can0 310#2000000000000000
(1677782815.787438) can0 262#282828282828
(1677782815.801768) can0 236#0000000000000000
(1677782815.802016) can0 237#0000000000000000
(1677782815.802265) can0 238#0000000000000000
(1677782815.812263) can0 310#2000000000000000
(1677782815.812434) can0 263#282828282828
(1677782815.826772) can0 1F4#0000000000000000
(1677782815.827029) can0 1F5#0000000000000000
(1677782815.827274) can0 1F6#0000000000000000
(1677782815.837312) can0 310#2000000000000000
(1677782815.837491) can0 270#0000000000000000
(1677782815.837718) can0 272#000000000000
(1677782815.837962) can0 555#0000000003000000
(1677782815.838387) can0 271#00000000001E
(1677782815.838602) can0 264#310200000031
(1677782815.851773) can0 1FA#0000000000000000
(1677782815.852026) can0 1FB#0000000000000000
(1677782815.852276) can0 1FC#0000000000000000
(1677782815.862258) can0 310#2000000000000000
(1677782815.862445) can0 265#000034000000
(1677782815.876783) can0 200#0000000000000000
(1677782815.877038) can0 201#0000000000000000
(1677782815.877283) can0 202#0000000000000000
(1677782815.887308) can0 310#2000000000000000
(1677782815.887420) can0 266#220022222222
(1677782815.901767) can0 206#0000000000000000
(1677782815.902019) can0 207#0000000000000000
(1677782815.902274) can0 208#0000000000000000
(1677782815.912259) can0 310#2000000000000000
(1677782815.912430) can0 267#220022222200
(1677782815.926769) can0 20C#0000000000000000
(1677782815.927039) can0 20D#0000000000000000
(1677782815.927269) can0 20E#0000000000000000
(1677782815.937330) can0 310#2000000000000000
(1677782815.937509) can0 270#0000000000000000
(1677782815.937737) can0 272#000000000000
(1677782815.937983) can0 555#0000000003000000
(1677782815.938383) can0 271#00000000001E
(1677782815.938592) can0 268#370037373737
(1677782815.951744) can0 212#CE64F064D364D964
(1677782815.951971) can0 213#C0646C64BF644965
(1677782815.952193) can0 214#6E648665B564DB64
(1677782815.962256) can0 310#2000000000000000
(1677782815.962440) can0 269#370037373700
(1677782815.976765) can0 218#0000000000000000
(1677782815.977037) can0 219#0000000000000000
(1677782815.977262) can0 21A#0000000000000000
(1677782815.987295) can0 310#2000000000000000
(1677782815.987420) can0 26A#000000000000
(1677782816.001811) can0 21E#0000000000000000
(1677782816.002021) can0 21F#0000000000000000
(1677782816.002258) can0 220#0000000000000000
(1677782816.012291) can0 310#2000000000000000
(1677782816.012417) can0 26B#000000000000
(1677782816.026770) can0 224#0000000000000000
(1677782816.027034) can0 225#0000000000000000
(1677782816.027270) can0 226#0000000000000000
(1677782816.037314) can0 310#2000000000000000
(1677782816.037492) can0 270#0000000000000000
(1677782816.037703) can0 272#000000000000
(1677782816.037961) can0 555#0000000003000000
(1677782816.038383) can0 271#00000000001E
(1677782816.038601) can0 26C#000000000000
(1677782816.051762) can0 22A#0000000000000000
(1677782816.052011) can0 22B#0000000000000000
(1677782816.052264) can0 22C#0000000000000000
(1677782816.062255) can0 310#2000000000000000
(1677782816.062458) can0 26D#000000000000
(1677782816.076773) can0 230#0000000000000000
(1677782816.077025) can0 231#0000000000000000
(1677782816.077270) can0 232#0000000000000000
(1677782816.087264) can0 310#2000000000000000
(1677782816.087435) can0 26E#000000000000
(1677782816.101763) can0 236#0000000000000000
(1677782816.102011) can0 237#0000000000000000
(1677782816.102261) can0 238#0000000000000000
(1677782816.112261) can0 310#2000000000000000
(1677782816.112435) can0 26F#000000000000
(1677782816.126767) can0 1F4#0000000000000000
(1677782816.127049) can0 1F5#0000000000000000
(1677782816.127274) can0 1F6#0000000000000000
(1677782816.137265) can0 310#2000000000000000
(1677782816.137541) can0 270#0000000000000000
(1677782816.137661) can0 272#000000000000
(1677782816.137956) can0 555#0000000003000000
(1677782816.138383) can0 271#00000000001E
(1677782816.138600) can0 258#000000000000
(1677782816.151766) can0 1FA#0000000000000000
(1677782816.152016) can0 1FB#0000000000000000
(1677782816.152267) can0 1FC#0000000000000000
(1677782816.162256) can0 310#2000000000000000
(1677782816.162437) can0 259#000000000000
(1677782816.176790) can0 200#0000000000000000
(1677782816.177045) can0 201#0000000000000000
(1677782816.177289) can0 202#0000000000000000
(1677782816.187261) can0 310#2000000000000000
(1677782816.187432) can0 25A#000000000000
(1677782816.201764) can0 206#0000000000000000
(1677782816.202015) can0 207#0000000000000000
(1677782816.202271) can0 208#0000000000000000
(1677782816.212254) can0 310#2000000000000000
(1677782816.212433) can0 25B#000000000000
(1677782816.226766) can0 20C#0000000000000000
(1677782816.227041) can0 20D#0000000000000000
(1677782816.227268) can0 20E#0000000000000000
(1677782816.237323) can0 310#2000000000000000
(1677782816.237502) can0 270#0000000000000000
(1677782816.237730) can0 272#000000000000
(1677782816.237972) can0 555#0000000003000000
(1677782816.238379) can0 271#00000000001E
(1677782816.238590) can0 25C#000000000000
(1677782816.251739) can0 212#CD64F064D364D864
(1677782816.251967) can0 213#C0646B64BE644865
(1677782816.252192) can0 214#6E648665B564DA64
(1677782816.262250) can0 310#2000000000000000
(1677782816.262428) can0 25D#000000000000
(1677782816.276764) can0 218#0000000000000000
(1677782816.277039) can0 219#0000000000000000
(1677782816.277264) can0 21A#0000000000000000
(1677782816.287256) can0 310#2000000000000000
(1677782816.287428) can0 25E#230023232323
(1677782816.301759) can0 21E#0000000000000000
(1677782816.302010) can0 21F#0000000000000000
(1677782816.302260) can0 220#0000000000000000
(1677782816.312253) can0 310#2000000000000000
(1677782816.312426) can0 25F#230023232300
(1677782816.326763) can0 224#0000000000000000
(1677782816.327034) can0 225#0000000000000000
(1677782816.327263) can0 226#0000000000000000
(1677782816.337265) can0 310#2000000000000000
(1677782816.337542) can0 270#0000000000000000
(1677782816.337662) can0 272#000000000000
(1677782816.337954) can0 555#0000000003000000
(1677782816.338380) can0 271#00000000001E
(1677782816.338598) can0 260#310000000031
(1677782816.351763) can0 22A#0000000000000000
(1677782816.352009) can0 22B#0000000000000000
(1677782816.352261) can0 22C#0000000000000000
(1677782816.362256) can0 310#2000000000000000
(1677782816.362428) can0 261#000031000000
(1677782816.376772) can0 230#0000000000000000
(1677782816.377027) can0 231#0000000000000000
(1677782816.377271) can0 232#0000000000000000
(1677782816.387261) can0 310#2000000000000000
(1677782816.387432) can0 262#282828282828
(1677782816.401760) can0 236#0000000000000000
(1677782816.402007) can0 237#0000000000000000
(1677782816.402258) can0 238#0000000000000000
(1677782816.412251) can0 310#2000000000000000
(1677782816.412423) can0 263#282828282828
(1677782816.426762) can0 1F4#0000000000000000
(1677782816.427043) can0 1F5#0000000000000000
(1677782816.427264) can0 1F6#0000000000000000
(1677782816.437259) can0 310#2000000000000000
(1677782816.437572) can0 270#0000000000000000
(1677782816.437682) can0 272#000000000000
(1677782816.437952) can0 555#0000000003000000
(1677782816.438378) can0 271#00000000001E
(1677782816.438593) can0 264#310200000031
(1677782816.451761) can0 1FA#0000000000000000
(1677782816.452012) can0 1FB#0000000000000000
(1677782816.452264) can0 1FC#0000000000000000
(1677782816.462249) can0 310#2000000000000000
(1677782816.462426) can0 265#000034000000
(1677782816.476777) can0 200#0000000000000000
(1677782816.477027) can0 201#0000000000000000
(1677782816.477276) can0 202#0000000000000000
(1677782816.487257) can0 310#2000000000000000
(1677782816.487430) can0 266#220022222222
(1677782816.501764) can0 206#0000000000000000
(1677782816.502017) can0 207#0000000000000000
(1677782816.502270) can0 208#0000000000000000
(1677782816.512251) can0 310#2000000000000000
(1677782816.512422) can0 267#220022222200
(1677782816.526761) can0 20C#0000000000000000
(1677782816.527030) can0 20D#0000000000000000
(1677782816.527264) can0 20E#0000000000000000
(1677782816.537321) can0 310#2000000000000000
(1677782816.537500) can0 270#0000000000000000
(1677782816.537725) can0 272#000000000000
(1677782816.537982) can0 555#0000000003000000
(1677782816.538376) can0 271#00000000001E
(1677782816.538583) can0 268#370037373737
(1677782816.551732) can0 212#CD64EF64D364D964
(1677782816.551957) can0 213#C0646B64BE644865
(1677782816.552181) can0 214#6E648665B464DB64
(1677782816.562259) can0 310#2000000000000000
(1677782816.562372) can0 269#370037373700
(1677782816.576758) can0 218#0000000000000000
(1677782816.577035) can0 219#0000000000000000
(1677782816.577255) can0 21A#0000000000000000
(1677782816.587252) can0 310#2000000000000000
(1677782816.587453) can0 26A#000000000000
(1677782816.601759) can0 21E#0000000000000000
(1677782816.602012) can0 21F#0000000000000000
(1677782816.602260) can0 220#0000000000000000
(1677782816.612246) can0 310#2000000000000000
(1677782816.612424) can0 26B#000000000000
(1677782816.626760) can0 224#0000000000000000
(1677782816.627042) can0 225#0000000000000000
(1677782816.627266) can0 226#0000000000000000
(1677782816.637302) can0 310#2000000000000000
(1677782816.637481) can0 270#0000000000000000
(1677782816.637691) can0 272#000000000000
(1677782816.637944) can0 555#0000000003000000
(1677782816.638375) can0 271#00000000001E
(1677782816.638592) can0 26C#000000000000
(1677782816.651755) can0 22A#0000000000000000
(1677782816.652005) can0 22B#0000000000000000
(1677782816.652256) can0 22C#0000000000000000
(1677782816.662247) can0 310#2000000000000000
(1677782816.662436) can0 26D#000000000000
(1677782816.676767) can0 230#0000000000000000
(1677782816.677037) can0 231#0000000000000000
(1677782816.677270) can0 232#0000000000000000
(1677782816.687253) can0 310#2000000000000000
(1677782816.687425) can0 26E#000000000000
(1677782816.701757) can0 236#0000000000000000
(1677782816.702005) can0 237#0000000000000000
(1677782816.702253) can0 238#0000000000000000
(1677782816.712249) can0 310#2000000000000000
(1677782816.712422) can0 26F#000000000000
(1677782816.726761) can0 1F4#0000000000000000
(1677782816.727034) can0 1F5#0000000000000000
(1677782816.727262) can0 1F6#0000000000000000
(1677782816.737261) can0 310#2000000000000000
(1677782816.737534) can0 270#0000000000000000
(1677782816.737655) can0 272#000000000000
(1677782816.737950) can0 555#0000000003000000
(1677782816.738373) can0 271#00000000001E
(1677782816.738593) can0 258#000000000000
(1677782816.751758) can0 1FA#0000000000000000
(1677782816.752007) can0 1FB#0000000000000000
(1677782816.752259) can0 1FC#0000000000000000
(1677782816.762250) can0 310#2000000000000000
(1677782816.762428) can0 259#000000000000
(1677782816.776776) can0 200#0000000000000000
(1677782816.777030) can0 201#0000000000000000
(1677782816.777275) can0 202#0000000000000000
(1677782816.787257) can0 310#2000000000000000
(1677782816.787430) can0 25A#000000000000
(1677782816.801757) can0 206#0000000000000000
(1677782816.802009) can0 207#0000000000000000
(1677782816.802262) can0 208#0000000000000000
(1677782816.812251) can0 310#2000000000000000
(1677782816.812428) can0 25B#000000000000
(1677782816.826759) can0 20C#0000000000000000
(1677782816.827033) can0 20D#0000000000000000
(1677782816.827261) can0 20E#0000000000000000
(1677782816.837315) can0 310#2000000000000000
(1677782816.837650) can0 270#0000000000000000
(1677782816.837760) can0 272#000000000000
(1677782816.837969) can0 555#0000000003000000
(1677782816.838371) can0 271#00000000001E
(1677782816.838581) can0 25C#000000000000
(1677782816.851724) can0 212#CD64EF64D264D964
(1677782816.851950) can0 213#C0646B64BE644765
(1677782816.852175) can0 214#6D648565B464DB64
(1677782816.862246) can0 310#2000000000000000
(1677782816.862430) can0 25D#000000000000
(1677782816.876774) can0 218#0000000000000000
(1677782816.877063) can0 219#0000000000000000
(1677782816.877251) can0 21A#0000000000000000
(1677782816.887264) can0 310#2000000000000000
(1677782816.887378) can0 25E#230023232323
(1677782816.901755) can0 21E#0000000000000000
(1677782816.902007) can0 21F#0000000000000000
(1677782816.902257) can0 220#0000000000000000
(1677782816.912269) can0 310#2000000000000000
(1677782816.912384) can0 25F#230023232300
(1677782816.926757) can0 224#0000000000000000
(1677782816.927031) can0 225#0000000000000000
(1677782816.927261) can0 226#0000000000000000
(1677782816.937314) can0 310#2000000000000000
(1677782816.937493) can0 270#0000000000000000
(1677782816.937694) can0 272#000000000000
(1677782816.937950) can0 555#0000000003000000
(1677782816.938372) can0 271#00000000001E
(1677782816.938587) can0 260#310000000031
(1677782816.951752) can0 22A#0000000000000000
(1677782816.952000) can0 22B#0000000000000000
(1677782816.952251) can0 22C#0000000000000000
(1677782816.962253) can0 310#2000000000000000
(1677782816.962425) can0 261#000031000000
(1677782816.976772) can0 230#0000000000000000
(1677782816.977041) can0 231#0000000000000000
(1677782816.977261) can0 232#0000000000000000
(1677782816.987246) can0 310#2000000000000000
(1677782816.987447) can0 262#282828282828
(1677782817.001742) can0 236#0000000000000000
(1677782817.001989) can0 237#0000000000000000
(1677782817.002240) can0 238#0000000000000000
(1677782817.012230) can0 310#2000000000000000
(1677782817.012430) can0 263#282828282828
(1677782817.026746) can0 1F4#0000000000000000
(1677782817.027023) can0 1F5#0000000000000000
(1677782817.027248) can0 1F6#0000000000000000
(1677782817.037281) can0 310#2000000000000000
(1677782817.037515) can0 270#0000000000000000
(1677782817.037679) can0 272#000000000000
(1677782817.037938) can0 555#0000000003000000
(1677782817.038360) can0 271#00000000001E
(1677782817.038572) can0 264#310200000031
(1677782817.051745) can0 1FA#0000000000000000
(1677782817.051996) can0 1FB#0000000000000000
(1677782817.052248) can0 1FC#0000000000000000
(1677782817.062224) can0 310#2000000000000000
(1677782817.062429) can0 265#000034000000
(1677782817.076769) can0 200#0000000000000000
(1677782817.077034) can0 201#0000000000000000
(1677782817.077263) can0 202#0000000000000000
(1677782817.087237) can0 310#2000000000000000
(1677782817.087396) can0 266#220022222222
(1677782817.101743) can0 206#0000000000000000
(1677782817.101994) can0 207#0000000000000000
(1677782817.102248) can0 208#0000000000000000
(1677782817.112220) can0 310#2000000000000000
(1677782817.112405) can0 267#220022222200
(1677782817.126743) can0 20C#0000000000000000
(1677782817.127016) can0 20D#0000000000000000
(1677782817.127245) can0 20E#0000000000000000
(1677782817.137289) can0 310#2000000000000000
(1677782817.137523) can0 270#0000000000000000
(1677782817.137695) can0 272#000000000000
(1677782817.137949) can0 555#0000000003000000
(1677782817.138358) can0 271#00000000001E
(1677782817.138562) can0 268#370037373737
(1677782817.151718) can0 212#CD64EF64D264D964
(1677782817.151943) can0 213#C1646C64BE644865
(1677782817.152168) can0 214#6E648665B464DB64
(1677782817.162229) can0 310#2000000000000000
(1677782817.162405) can0 269#370037373700
(1677782817.176755) can0 218#0000000000000000
(1677782817.177012) can0 219#0000000000000000
(1677782817.177241) can0 21A#0000000000000000
(1677782817.187237) can0 310#2000000000000000
(1677782817.187442) can0 26A#000000000000
(1677782817.201749) can0 21E#0000000000000000
(1677782817.202001) can0 21F#0000000000000000
(1677782817.202251) can0 220#0000000000000000
(1677782817.212220) can0 310#2000000000000000
(1677782817.212426) can0 26B#000000000000
(1677782817.226742) can0 224#0000000000000000
(1677782817.227022) can0 225#0000000000000000
(1677782817.227242) can0 226#0000000000000000
(1677782817.237276) can0 310#2000000000000000
(1677782817.237509) can0 270#0000000000000000
(1677782817.237667) can0 272#000000000000
(1677782817.237928) can0 555#0000000003000000
(1677782817.238357) can0 271#00000000001E
(1677782817.238571) can0 26C#000000000000
(1677782817.251738) can0 22A#0000000000000000
(1677782817.251986) can0 22B#0000000000000000
(1677782817.252238) can0 22C#0000000000000000
(1677782817.262221) can0 310#2000000000000000
(1677782817.262428) can0 26D#000000000000
(1677782817.276759) can0 230#0000000000000000
(1677782817.277022) can0 231#0000000000000000
(1677782817.277252) can0 232#0000000000000000
(1677782817.287236) can0 310#2000000000000000
(1677782817.287441) can0 26E#000000000000
(1677782817.301736) can0 236#0000000000000000
(1677782817.301984) can0 237#0000000000000000
(1677782817.302235) can0 238#0000000000000000
(1677782817.312223) can0 310#2000000000000000
(1677782817.312426) can0 26F#000000000000
(1677782817.326742) can0 1F4#0000000000000000
(1677782817.327014) can0 1F5#0000000000000000
(1677782817.327245) can0 1F6#0000000000000000
(1677782817.337277) can0 310#2000000000000000
(1677782817.337511) can0 270#0000000000000000
(1677782817.337675) can0 272#000000000000
(1677782817.337934) can0 555#0000000003000000
(1677782817.338355) can0 271#00000000001E
(1677782817.338567) can0 258#000000000000
(1677782817.351742) can0 1FA#0000000000000000
(1677782817.351990) can0 1FB#0000000000000000
(1677782817.352243) can0 1FC#0000000000000000
(1677782817.362230) can0 310#2000000000000000
(1677782817.362435) can0 259#000000000000
(1677782817.376768) can0 200#0000000000000000
(1677782817.377034) can0 201#0000000000000000
(1677782817.377257) can0 202#0000000000000000
(1677782817.387236) can0 310#2000000000000000
(1677782817.387440) can0 25A#000000000000
(1677782817.401739) can0 206#0000000000000000
(1677782817.401991) can0 207#0000000000000000
(1677782817.402245) can0 208#0000000000000000
(1677782817.412223) can0 310#2000000000000000
(1677782817.412429) can0 25B#000000000000
(1677782817.426739) can0 20C#0000000000000000
(1677782817.427015) can0 20D#0000000000000000
(1677782817.427241) can0 20E#0000000000000000
(1677782817.437288) can0 310#2000000000000000
(1677782817.437526) can0 270#0000000000000000
(1677782817.437721) can0 272#000000000000
(1677782817.437949) can0 555#0000000003000000
(1677782817.438353) can0 271#00000000001E
(1677782817.438566) can0 25C#000000000000
(1677782817.451707) can0 212#CC64EF64D364D964
(1677782817.451932) can0 213#C0646C64BE644865
(1677782817.452158) can0 214#6F648665B464DA64
(1677782817.462220) can0 310#2000000000000000
(1677782817.462424) can0 25D#000000000000
(1677782817.476745) can0 218#0000000000000000
(1677782817.477016) can0 219#0000000000000000
(1677782817.477244) can0 21A#0000000000000000
(1677782817.487229) can0 310#2000000000000000
(1677782817.487402) can0 25E#230023232323
(1677782817.501752) can0 21E#0000000000000000
(1677782817.502004) can0 21F#0000000000000000
(1677782817.502254) can0 220#0000000000000000
(1677782817.512221) can0 310#2000000000000000
(1677782817.512424) can0 25F#230023232300
(1677782817.526736) can0 224#0000000000000000
(1677782817.527012) can0 225#0000000000000000
(1677782817.527236) can0 226#0000000000000000
(1677782817.537273) can0 310#2000000000000000
(1677782817.537507) can0 270#0000000000000000
(1677782817.537671) can0 272#000000000000
(1677782817.537929) can0 555#0000000003000000
(1677782817.538352) can0 271#00000000001E
(1677782817.538562) can0 260#310000000031
(1677782817.551736) can0 22A#0000000000000000
(1677782817.551983) can0 22B#0000000000000000
(1677782817.552235) can0 22C#0000000000000000
(1677782817.562227) can0 310#2000000000000000
(1677782817.562431) can0 261#000031000000
(1677782817.576741) can0 230#0000000000000000
(1677782817.577014) can0 231#0000000000000000
(1677782817.577239) can0 232#0000000000000000
(1677782817.587229) can0 310#2000000000000000
(1677782817.587407) can0 262#282828282828
(1677782817.601733) can0 236#0000000000000000
(1677782817.601982) can0 237#0000000000000000
(1677782817.602231) can0 238#0000000000000000
(1677782817.612214) can0 310#2000000000000000
(1677782817.612419) can0 263#282828282828
(1677782817.626735) can0 1F4#0000000000000000
(1677782817.627015) can0 1F5#0000000000000000
(1677782817.627239) can0 1F6#0000000000000000
(1677782817.637269) can0 310#2000000000000000
(1677782817.637506) can0 270#0000000000000000
(1677782817.637670) can0 272#000000000000
(1677782817.637929) can0 555#0000000003000000
(1677782817.638350) can0 271#00000000001E
(1677782817.638557) can0 264#310200000031
(1677782817.651735) can0 1FA#0000000000000000
(1677782817.651986) can0 1FB#0000000000000000
(1677782817.652237) can0 1FC#0000000000000000
(1677782817.662211) can0 310#2000000000000000
(1677782817.662417) can0 265#000034000000
(1677782817.676748) can0 200#0000000000000000
(1677782817.677019) can0 201#0000000000000000
(1677782817.677248) can0 202#0000000000000000
(1677782817.687224) can0 310#2000000000000000
(1677782817.687399) can0 266#220022222222
(1677782817.701734) can0 206#0000000000000000
(1677782817.701986) can0 207#0000000000000000
(1677782817.702239) can0 208#0000000000000000
(1677782817.712219) can0 310#2000000000000000
(1677782817.712396) can0 267#220022222200
(1677782817.726734) can0 20C#0000000000000000
(1677782817.727012) can0 20D#0000000000000000
(1677782817.727237) can0 20E#0000000000000000
(1677782817.737289) can0 310#2000000000000000
(1677782817.737523) can0 270#0000000000000000
(1677782817.737687) can0 272#000000000000
(1677782817.737947) can0 555#0000000003000000
(1677782817.738352) can0 271#00000000001E
(1677782817.738552) can0 268#370037373737
(1677782817.751706) can0 212#CD64EF64D364D964
(1677782817.751932) can0 213#C0646B64BE644865
(1677782817.752157) can0 214#6E648665B564DB64
(1677782817.762228) can0 310#2000000000000000
(1677782817.762394) can0 269#370037373700
(1677782817.776734) can0 218#0000000000000000
(1677782817.777012) can0 219#0000000000000000
(1677782817.777233) can0 21A#0000000000000000
(1677782817.787230) can0 310#2000000000000000
(1677782817.787434) can0 26A#000000000000
(1677782817.801755) can0 21E#0000000000000000
(1677782817.802007) can0 21F#0000000000000000
(1677782817.802258) can0 220#0000000000000000
(1677782817.812216) can0 310#2000000000000000
(1677782817.812428) can0 26B#000000000000
(1677782817.826733) can0 224#0000000000000000
(1677782817.827010) can0 225#0000000000000000
(1677782817.827234) can0 226#0000000000000000
(1677782817.837273) can0 310#2000000000000000
(1677782817.837507) can0 270#0000000000000000
(1677782817.837670) can0 272#000000000000
(1677782817.837929) can0 555#0000000003000000
(1677782817.838350) can0 271#00000000001E
(1677782817.838561) can0 26C#000000000000
(1677782817.851728) can0 22A#0000000000000000
(1677782817.851977) can0 22B#0000000000000000
(1677782817.852229) can0 22C#0000000000000000
(1677782817.862214) can0 310#2000000000000000
(1677782817.862420) can0 26D#000000000000
(1677782817.876738) can0 230#0000000000000000
(1677782817.877010) can0 231#0000000000000000
(1677782817.877237) can0 232#0000000000000000
(1677782817.887228) can0 310#2000000000000000
(1677782817.887412) can0 26E#000000000000
(1677782817.901730) can0 236#0000000000000000
(1677782817.901979) can0 237#0000000000000000
(1677782817.902228) can0 238#0000000000000000
(1677782817.912216) can0 310#2000000000000000
(1677782817.912421) can0 26F#000000000000
(1677782817.926736) can0 1F4#0000000000000000
(1677782817.927011) can0 1F5#0000000000000000
(1677782817.927237) can0 1F6#0000000000000000
(1677782817.937273) can0 310#2000000000000000
(1677782817.937507) can0 270#0000000000000000
(1677782817.937665) can0 272#000000000000
(1677782817.937927) can0 555#0000000003000000
(1677782817.938347) can0 271#00000000001E
(1677782817.938560) can0 258#000000000000
(1677782817.951736) can0 1FA#0000000000000000
(1677782817.951984) can0 1FB#0000000000000000
(1677782817.952238) can0 1FC#0000000000000000
(1677782817.962221) can0 310#2000000000000000
(1677782817.962425) can0 259#000000000000
(1677782817.976750) can0 200#0000000000000000
(1677782817.977023) can0 201#0000000000000000
(1677782817.977251) can0 202#0000000000000000
(1677782817.987222) can0 310#2000000000000000
(1677782817.987426) can0 25A#000000000000
(1677782818.001731) can0 206#0000000000000000
(1677782818.001983) can0 207#0000000000000000
(1677782818.002237) can0 208#0000000000000000
(1677782818.012215) can0 310#2000000000000000
(1677782818.012419) can0 25B#000000000000
(1677782818.026729) can0 20C#0000000000000000
(1677782818.027005) can0 20D#0000000000000000
(1677782818.027231) can0 20E#0000000000000000
(1677782818.037285) can0 310#2000000000000000
(1677782818.037519) can0 270#0000000000000000
(1677782818.037714) can0 272#000000000000
(1677782818.037941) can0 555#0000000003000000
(1677782818.038346) can0 271#00000000001E
(1677782818.038560) can0 25C#000000000000
(1677782818.051715) can0 212#CC64F064D264D964
(1677782818.051939) can0 213#C0646A64BF644965
(1677782818.052150) can0 214#6F648665B464DB64
(1677782818.062212) can0 310#2000000000000000
(1677782818.062418) can0 25D#000000000000
(1677782818.076731) can0 218#0000000000000000
(1677782818.077030) can0 219#0000000000000000
(1677782818.077230) can0 21A#0000000000000000
(1677782818.087218) can0 310#2000000000000000
(1677782818.087391) can0 25E#230023232323
(1677782818.101737) can0 21E#0000000000000000
(1677782818.101989) can0 21F#0000000000000000
(1677782818.102240) can0 220#0000000000000000
(1677782818.112214) can0 310#2000000000000000
(1677782818.112414) can0 25F#230023232300
(1677782818.126729) can0 224#0000000000000000
(1677782818.127018) can0 225#0000000000000000
(1677782818.127233) can0 226#0000000000000000
(1677782818.137269) can0 310#2000000000000000
(1677782818.137503) can0 270#0000000000000000
(1677782818.137660) can0 272#000000000000
(1677782818.137924) can0 555#0000000003000000
(1677782818.138345) can0 271#00000000001E
(1677782818.138555) can0 260#310000000031
(1677782818.151728) can0 22A#0000000000000000
(1677782818.151974) can0 22B#0000000000000000
(1677782818.152226) can0 22C#0000000000000000
(1677782818.162220) can0 310#2000000000000000
(1677782818.162426) can0 261#000031000000
(1677782818.176733) can0 230#0000000000000000
(1677782818.177021) can0 231#0000000000000000
(1677782818.177240) can0 232#0000000000000000
(1677782818.187220) can0 310#2000000000000000
(1677782818.187396) can0 262#282828282828
(1677782818.201726) can0 236#0000000000000000
(1677782818.201974) can0 237#0000000000000000
(1677782818.202222) can0 238#0000000000000000
(1677782818.212214) can0 310#2000000000000000
(1677782818.212422) can0 263#282828282828
(1677782818.226731) can0 1F4#0000000000000000
(1677782818.227011) can0 1F5#0000000000000000
(1677782818.227234) can0 1F6#0000000000000000
(1677782818.237262) can0 310#2000000000000000
(1677782818.237500) can0 270#0000000000000000
(1677782818.237691) can0 272#000000000000
(1677782818.237921) can0 555#0000000003000000
(1677782818.238343) can0 271#00000000001E
(1677782818.238556) can0 264#310200000031
(1677782818.251727) can0 1FA#0000000000000000
(1677782818.251977) can0 1FB#0000000000000000
(1677782818.252231) can0 1FC#0000000000000000
(1677782818.262276) can0 310#2000000000000000
(1677782818.262377) can0 265#000034000000
(1677782818.276742) can0 200#0000000000000000
(1677782818.277033) can0 201#0000000000000000
(1677782818.277251) can0 202#0000000000000000
(1677782818.287219) can0 310#2000000000000000
(1677782818.287386) can0 266#220022222222
(1677782818.301726) can0 206#0000000000000000
(1677782818.301978) can0 207#0000000000000000
(1677782818.302232) can0 208#0000000000000000
(1677782818.312210) can0 310#2000000000000000
(1677782818.312415) can0 267#220022222200
(1677782818.326726) can0 20C#0000000000000000
(1677782818.326999) can0 20D#0000000000000000
(1677782818.327228) can0 20E#0000000000000000
(1677782818.337282) can0 310#2000000000000000
(1677782818.337516) can0 270#0000000000000000
(1677782818.337680) can0 272#000000000000
(1677782818.337940) can0 555#0000000003000000
(1677782818.338344) can0 271#00000000001E
(1677782818.338542) can0 268#370037373737
(1677782818.351699) can0 212#CC64EF64D364DA64
(1677782818.351923) can0 213#C1646B64BE644865
(1677782818.352148) can0 214#6E648665B564DA64
(1677782818.362214) can0 310#2000000000000000
(1677782818.362392) can0 269#370037373700
(1677782818.376726) can0 218#0000000000000000
(1677782818.377011) can0 219#0000000000000000
(1677782818.377215) can0 21A#0000000000000000
(1677782818.387221) can0 310#2000000000000000
(1677782818.387428) can0 26A#000000000000
(1677782818.401732) can0 21E#0000000000000000
(1677782818.401984) can0 21F#0000000000000000
(1677782818.402235) can0 220#0000000000000000
(1677782818.412209) can0 310#2000000000000000
(1677782818.412414) can0 26B#000000000000
(1677782818.426725) can0 224#0000000000000000
(1677782818.427006) can0 225#0000000000000000
(1677782818.427227) can0 226#0000000000000000
(1677782818.437264) can0 310#2000000000000000
(1677782818.437498) can0 270#0000000000000000
(1677782818.437661) can0 272#000000000000
(1677782818.437921) can0 555#0000000003000000
(1677782818.438341) can0 271#00000000001E
(1677782818.438553) can0 26C#000000000000
(1677782818.451727) can0 22A#0000000000000000
(1677782818.451976) can0 22B#0000000000000000
(1677782818.452227) can0 22C#0000000000000000
