(1677782868.586445) can1 011#F80008C580000000
(1677782868.595684) can1 521#000EFFFFFFFF
(1677782868.611398) can1 011#F80008C580000000
(1677782868.615608) can1 521#000F00000001
(1677782868.636059) can1 521#000000000000
(1677782868.636171) can1 522#0100FFFFFFF8
(1677782868.636273) can1 523#020000000005
(1677782868.636374) can1 011#F80008C580000000
(1677782868.636560) can1 002#260A460000010000
(1677782868.636715) can1 003#3700810000010000
(1677782868.636894) can1 524#070000000000
(1677782868.655723) can1 521#000100000002
(1677782868.661413) can1 011#F80008C580000000
(1677782868.675650) can1 521#000200000000
(1677782868.686410) can1 011#F80008C580000000
(1677782868.696104) can1 521#000300000000
(1677782868.696225) can1 522#0101FFFFFFF3
(1677782868.696337) can1 523#0201FFFFFFF8
(1677782868.696448) can1 524#070100000000
(1677782868.711412) can1 011#F80008C580000000
(1677782868.715747) can1 521#000400000000
(1677782868.735674) can1 521#000500000002
(1677782868.736416) can1 011#F80008C580000000
(1677782868.736618) can1 002#260A460000010000
(1677782868.736751) can1 003#3700810000010000
(1677782868.756128) can1 521#000600000001
(1677782868.756250) can1 522#0102FFFFFFF0
(1677782868.756361) can1 523#0202FFFFFFFE
(1677782868.756472) can1 524#070200000000
(1677782868.761417) can1 011#F80008C580000000
(1677782868.775689) can1 521#000700000000
(1677782868.786409) can1 011#F80008C580000000
(1677782868.795772) can1 521#000800000000
(1677782868.811404) can1 011#F80008C580000000
(1677782868.816140) can1 521#000900000001
(1677782868.816261) can1 522#010300000002
(1677782868.816372) can1 523#020300000002
(1677782868.816483) can1 524#070300000000
(1677782868.835715) can1 521#000A00000001
(1677782868.836415) can1 011#F80008C580000000
(1677782868.836618) can1 002#260A460000010000
(1677782868.836751) can1 003#3700810000010000
(1677782868.855801) can1 521#000B00000000
(1677782868.861406) can1 011#F80008C580000000
(1677782868.876210) can1 521#000C00000000
(1677782868.876395) can1 522#0104FFFFFFFF
(1677782868.876562) can1 523#020400000006
(1677782868.876660) can1 524#070400000000
(1677782868.886408) can1 011#F80008C580000000
(1677782868.895737) can1 521#000D00000000
(1677782868.911406) can1 011#F80008C580000000
(1677782868.915744) can1 521#000E00000002
(1677782868.936197) can1 521#000F00000000
(1677782868.936317) can1 522#0105FFFFFFFB
(1677782868.936438) can1 003#3700810000010000
(1677782868.936621) can1 002#260A460000010000
(1677782868.936789) can1 523#020500000006
(1677782868.936888) can1 011#F80008C580000000
(1677782868.937119) can1 524#070500000000
(1677782868.955844) can1 521#0000FFFFFFFF
(1677782868.961412) can1 011#F80008C580000000
(1677782868.975769) can1 521#000100000000
(1677782868.986407) can1 011#F80008C580000000
(1677782868.996236) can1 521#000200000000
(1677782868.996357) can1 522#0106FFFFFFFB
(1677782868.996469) can1 523#0206FFFFFFE8
(1677782868.996580) can1 524#070600000000
(1677782869.011409) can1 011#F80008C580000000
(1677782869.015787) can1 521#000300000000
(1677782869.035874) can1 521#000400000000
(1677782869.036414) can1 011#F80008C580000000
(1677782869.036616) can1 002#260A460000010000
(1677782869.036749) can1 003#3700810000010000
(1677782869.056263) can1 521#0005FFFFFFFF
(1677782869.056385) can1 522#0107FFFFFFF6
(1677782869.056497) can1 523#020700000000
(1677782869.056607) can1 524#070700000000
(1677782869.061418) can1 011#F80008C580000000
(1677782869.075892) can1 521#0006FFFFFFFF
(1677782869.086404) can1 011#F80008C580000000
(1677782869.095896) can1 521#000700000000
(1677782869.111402) can1 011#F80008C580000000
(1677782869.116283) can1 521#0008FFFFFFFF
(1677782869.116404) can1 522#010800000004
(1677782869.116516) can1 523#0208FFFFFFEE
(1677782869.116626) can1 524#070800000000
(1677782869.135910) can1 521#0009FFFFFFFF
(1677782869.136415) can1 011#F80008C580000000
(1677782869.136618) can1 002#260A460000010000
(1677782869.136748) can1 003#3700810000010000
(1677782869.155837) can1 521#000A00000000
(1677782869.161408) can1 011#F80008C580000000
(1677782869.176398) can1 521#000BFFFFFFFF
(1677782869.176562) can1 523#0209FFFFFFFA
(1677782869.176661) can1 522#0109FFFFFFF7
(1677782869.176786) can1 524#070900000000
(1677782869.186408) can1 011#F80008C580000000
(1677782869.195856) can1 521#000C00000001
(1677782869.211408) can1 011#F80008C580000000
(1677782869.215864) can1 521#000D00000000
(1677782869.236330) can1 521#000E00000000
(1677782869.236461) can1 002#260A460000010000
(1677782869.236632) can1 003#3700810000010000
(1677782869.236828) can1 011#F80008C580000000
(1677782869.236913) can1 522#010AFFFFFFFC
(1677782869.237110) can1 524#070A00000000
(1677782869.255884) can1 521#000F00000000
(1677782869.261406) can1 011#F80008C580000000
(1677782869.275965) can1 521#000000000000
(1677782869.286404) can1 011#F80008C580000000
(1677782869.296341) can1 521#000100000000
(1677782869.296462) can1 522#010B00000001
(1677782869.296574) can1 523#020BFFFFFFFE
(1677782869.296685) can1 524#070B00000000
(1677782869.311405) can1 011#F80008C580000000
(1677782869.315901) can1 521#000200000001
(1677782869.335917) can1 521#000300000000
(1677782869.336411) can1 011#F80008C580000000
(1677782869.336613) can1 002#260A460000010000
(1677782869.336746) can1 003#3700810000010000
(1677782869.356379) can1 521#000400000000
(1677782869.356497) can1 522#010CFFFFFFF2
(1677782869.356621) can1 523#020C00000002
(1677782869.356728) can1 524#070C00000000
(1677782869.361422) can1 011#F80008C580000000
(1677782869.375932) can1 521#000500000000
(1677782869.386401) can1 011#F80008C580000000
(1677782869.395937) can1 521#000600000000
(1677782869.411400) can1 011#F80008C580000000
(1677782869.416390) can1 521#000700000000
(1677782869.416511) can1 522#010DFFFFFFF4
(1677782869.416622) can1 523#020DFFFFFFFE
(1677782869.416733) can1 524#070D00000000
(1677782869.435953) can1 521#000800000001
(1677782869.436407) can1 011#F80008C580000000
(1677782869.436610) can1 002#260A460000010000
(1677782869.436741) can1 003#3700810000010000
(1677782869.456044) can1 521#000900000000
(1677782869.461426) can1 011#F80008C580000000
(1677782869.476442) can1 521#000A00000000
(1677782869.476635) can1 522#010E00000009
(1677782869.476777) can1 523#020EFFFFFFF7
(1677782869.476869) can1 524#070E00000000
(1677782869.486401) can1 011#F80008C580000000
(1677782869.495977) can1 521#000B00000000
(1677782869.511400) can1 011#F80008C580000000
(1677782869.515983) can1 521#000C00000000
(1677782869.536400) can1 011#F80008C580000000
(1677782869.536604) can1 002#260A460000010000
(1677782869.536734) can1 521#000D00000001
(1677782869.536821) can1 003#3700810000010000
(1677782869.537016) can1 522#010FFFFFFFFC
(1677782869.537115) can1 523#020FFFFFFFFF
(1677782869.555998) can1 521#000EFFFFFFFE
(1677782869.561398) can1 011#F80008C580000000
(1677782869.576010) can1 521#000F00000001
(1677782869.586400) can1 011#F80008C580000000
(1677782869.596459) can1 521#000000000000
(1677782869.596581) can1 522#010000000009
(1677782869.596692) can1 523#020000000002
(1677782869.596820) can1 524#070000000000
(1677782869.611398) can1 011#F80008C580000000
(1677782869.616024) can1 521#000100000000
(1677782869.636031) can1 521#000200000000
(1677782869.636402) can1 011#F80008C580000000
(1677782869.636607) can1 002#260A460000010000
(1677782869.636739) can1 003#3700810000010000
(1677782869.656487) can1 521#000300000000
(1677782869.656609) can1 522#0101FFFFFFF6
(1677782869.656720) can1 523#0201FFFFFFFE
(1677782869.656848) can1 524#070100000000
(1677782869.661420) can1 011#F80008C580000000
(1677782869.676179) can1 521#0004FFFFFFFF
(1677782869.686396) can1 011#F80008C580000000
(1677782869.696055) can1 521#000500000000
(1677782869.711396) can1 011#F80008C580000000
(1677782869.716508) can1 521#000600000001
(1677782869.716629) can1 522#010200000012
(1677782869.716741) can1 523#020200000010
(1677782869.716869) can1 524#070200000000
(1677782869.736145) can1 521#000700000000
(1677782869.736401) can1 011#F80008C580000000
(1677782869.736610) can1 002#260A460000010000
(1677782869.736738) can1 003#3700810000010000
(1677782869.756079) can1 521#000800000000
(1677782869.761396) can1 011#F80008C580000000
(1677782869.776574) can1 521#000900000000
(1677782869.776745) can1 522#0103FFFFFFF3
(1677782869.776874) can1 523#02030000000A
(1677782869.776975) can1 524#070300000000
(1677782869.786396) can1 011#F80008C580000000
(1677782869.796172) can1 521#000A00000000
(1677782869.811392) can1 011#F80008C580000000
(1677782869.816101) can1 521#000B00000000
(1677782869.836391) can1 011#F80008C580000000
(1677782869.836555) can1 002#260A460000010000
(1677782869.836723) can1 521#000C00000000
(1677782869.836822) can1 003#3700810000010000
(1677782869.837020) can1 522#010400000002
(1677782869.837119) can1 523#020400000008
(1677782869.856200) can1 521#000D00000000
(1677782869.861395) can1 011#F80008C580000000
(1677782869.876180) can1 521#000E00000001
(1677782869.886394) can1 011#F80008C580000000
(1677782869.896576) can1 521#000F00000001
(1677782869.896697) can1 522#0105FFFFFFF3
(1677782869.896822) can1 523#0205FFFFFFFA
(1677782869.896977) can1 524#070500000000
(1677782869.911396) can1 011#F80008C580000000
(1677782869.916138) can1 521#000000000000
(1677782869.936228) can1 521#000100000001
(1677782869.936349) can1 011#F80008C580000000
(1677782869.936543) can1 002#260A460000010000
(1677782869.936771) can1 003#3700810000010000
(1677782869.956610) can1 521#000200000001
(1677782869.956731) can1 522#010600000001
(1677782869.956859) can1 523#020600000002
(1677782869.957019) can1 524#070600000000
(1677782869.961421) can1 011#F80008C580000000
(1677782869.976245) can1 521#000300000000
(1677782869.986393) can1 011#F80008C580000000
(1677782869.996174) can1 521#000400000000
(1677782870.011392) can1 011#F80008C580000000
(1677782870.016627) can1 521#000500000000
(1677782870.016748) can1 522#0107FFFFFFF7
(1677782870.016875) can1 523#020700000011
(1677782870.017032) can1 524#070700000000
(1677782870.036270) can1 521#000600000000
(1677782870.036391) can1 011#F80008C580000000
(1677782870.036546) can1 002#260A460000010000
(1677782870.036770) can1 003#3700810000010000
(1677782870.056198) can1 521#0007FFFFFFFF
(1677782870.061393) can1 011#F80008C580000000
(1677782870.076682) can1 521#000800000000
(1677782870.076820) can1 522#0108FFFFFFFB
(1677782870.076977) can1 523#020800000010
(1677782870.077092) can1 524#070800000000
(1677782870.086392) can1 011#F80008C580000000
(1677782870.096211) can1 521#000900000000
(1677782870.111390) can1 011#F80008C580000000
(1677782870.116219) can1 521#000A00000001
(1677782870.136390) can1 011#F80008C580000000
(1677782870.136593) can1 002#260A460000010000
(1677782870.136726) can1 521#000B00000000
(1677782870.136820) can1 003#3700810000010000
(1677782870.137012) can1 522#010900000009
(1677782870.137111) can1 523#0209FFFFFFFB
(1677782870.156314) can1 521#000C00000000
(1677782870.161389) can1 011#F80008C580000000
(1677782870.176252) can1 521#000D00000000
(1677782870.186390) can1 011#F80008C580000000
(1677782870.196703) can1 521#000E00000000
(1677782870.196841) can1 522#010AFFFFFFE8
(1677782870.196997) can1 523#020A00000004
(1677782870.197111) can1 524#070A00000000
(1677782870.211389) can1 011#F80008C580000000
(1677782870.216258) can1 521#000F00000000
(1677782870.236269) can1 521#000000000000
(1677782870.236390) can1 011#F80008C580000000
(1677782870.236545) can1 002#260A460000010000
(1677782870.236769) can1 003#3700810000010000
(1677782870.256720) can1 521#000100000001
(1677782870.256859) can1 522#010B00000004
(1677782870.257019) can1 523#020BFFFFFFFA
(1677782870.257132) can1 524#070B00000000
(1677782870.261413) can1 011#F80008C580000000
(1677782870.276418) can1 521#000200000000
(1677782870.286388) can1 011#F80008C580000000
(1677782870.296376) can1 521#000300000000
(1677782870.311388) can1 011#F80008C580000000
(1677782870.316745) can1 521#000400000000
(1677782870.316883) can1 522#010C00000006
(1677782870.317038) can1 523#020CFFFFFFFE
(1677782870.317150) can1 524#070C00000000
(1677782870.336308) can1 521#000500000000
(1677782870.336430) can1 002#260A460000010000
(1677782870.336600) can1 003#3700810000010000
(1677782870.336767) can1 011#F80008C580000000
(1677782870.356315) can1 521#000600000000
(1677782870.361387) can1 011#F80008C580000000
(1677782870.376774) can1 521#000700000000
(1677782870.376912) can1 522#010D00000004
(1677782870.377061) can1 523#020DFFFFFFF8
(1677782870.377156) can1 524#070D00000000
(1677782870.386388) can1 011#F80008C580000000
(1677782870.396413) can1 521#000800000001
(1677782870.411387) can1 011#F80008C580000000
(1677782870.416342) can1 521#000900000000
(1677782870.436386) can1 011#F80008C580000000
(1677782870.436589) can1 002#260A460000010000
(1677782870.436722) can1 003#3700810000010000
(1677782870.436907) can1 521#000A00000000
(1677782870.437104) can1 523#020EFFFFFFF6
(1677782870.437187) can1 522#010E00000005
(1677782870.456364) can1 521#000B00000000
(1677782870.461388) can1 011#F80008C580000000
(1677782870.476421) can1 521#000C00000000
(1677782870.486388) can1 011#F80008C580000000
(1677782870.496842) can1 521#000D00000000
(1677782870.496979) can1 522#010FFFFFFFF8
(1677782870.497095) can1 523#020FFFFFFFFB
(1677782870.497206) can1 524#070F00000000
(1677782870.511387) can1 011#F80008C580000000
(1677782870.516465) can1 521#000E00000001
(1677782870.536388) can1 011#F80008C580000000
(1677782870.536590) can1 002#260A460000010000
(1677782870.536722) can1 521#000F00000000
(1677782870.536819) can1 003#3700810000010000
(1677782870.556867) can1 521#000000000001
(1677782870.557033) can1 523#0200FFFFFFF2
(1677782870.557109) can1 522#01000000000C
(1677782870.557220) can1 524#070000000000
(1677782870.561404) can1 011#F80008C580000000
(1677782870.576491) can1 521#000100000000
(1677782870.586386) can1 011#F80008C580000000
(1677782870.596413) can1 521#000200000000
(1677782870.611384) can1 011#F80008C580000000
(1677782870.616895) can1 521#000300000000
(1677782870.617055) can1 522#010100000002
(1677782870.617150) can1 523#0201FFFFFFFF
(1677782870.617244) can1 524#070100000000
(1677782870.636383) can1 011#F80008C580000000
(1677782870.636586) can1 002#260A460000010000
(1677782870.636719) can1 521#000400000000
(1677782870.636818) can1 003#3700810000010000
(1677782870.656443) can1 521#0005FFFFFFFF
(1677782870.661384) can1 011#F80008C580000000
(1677782870.676906) can1 521#000600000002
(1677782870.677063) can1 522#01020000000E
(1677782870.677176) can1 523#0202FFFFFFEF
(1677782870.677274) can1 524#070200000000
(1677782870.686384) can1 011#F80008C580000000
(1677782870.696451) can1 521#000700000001
(1677782870.711384) can1 011#F80008C580000000
(1677782870.716463) can1 521#000800000000
(1677782870.736382) can1 011#F80008C580000000
(1677782870.736585) can1 002#260A460000010000
(1677782870.736718) can1 003#3700810000010000
(1677782870.737001) can1 521#000900000000
(1677782870.737170) can1 523#020300000005
(1677782870.737269) can1 522#010300000001
(1677782870.737407) can1 524#070300000000
(1677782870.756476) can1 521#000A00000000
(1677782870.761387) can1 011#F80008C580000000
(1677782870.776491) can1 521#000B00000000
(1677782870.786382) can1 011#F80008C580000000
(1677782870.796974) can1 521#000C00000000
(1677782870.797094) can1 522#010400000001
(1677782870.797205) can1 523#0204FFFFFFF6
(1677782870.797316) can1 524#070400000000
(1677782870.811381) can1 011#F80008C580000000
(1677782870.816578) can1 521#000D00000001
(1677782870.836385) can1 011#F80008C580000000
(1677782870.836587) can1 002#260A460000010000
(1677782870.836719) can1 521#000E00000000
(1677782870.836817) can1 003#3700810000010000
(1677782870.857037) can1 521#000FFFFFFFFF
(1677782870.857174) can1 522#0105FFFFFFFF
(1677782870.857287) can1 523#020500000004
(1677782870.857396) can1 524#070500000000
(1677782870.861400) can1 011#F80008C580000000
(1677782870.876558) can1 521#000000000000
(1677782870.886376) can1 011#F80008C580000000
(1677782870.896536) can1 521#0001FFFFFFFF
(1677782870.911380) can1 011#F80008C580000000
(1677782870.917031) can1 521#000200000000
(1677782870.917149) can1 522#010600000019
(1677782870.917263) can1 523#0206FFFFFFF4
(1677782870.917374) can1 524#070600000000
(1677782870.936381) can1 011#F80008C580000000
(1677782870.936535) can1 002#260A460000010000
(1677782870.936719) can1 003#3700810000010000
(1677782870.936888) can1 521#000300000001
(1677782870.956557) can1 521#000400000000
(1677782870.961385) can1 011#F80008C580000000
(1677782870.977042) can1 521#000500000000
(1677782870.977157) can1 522#010700000008
(1677782870.977271) can1 523#020700000006
(1677782870.977380) can1 524#070700000000
(1677782870.986377) can1 011#F80008C580000000
(1677782870.996575) can1 521#000600000000
(1677782871.011381) can1 011#F80008C580000000
(1677782871.016580) can1 521#000700000000
(1677782871.036378) can1 011#F80008C580000000
(1677782871.036539) can1 002#260A460000010000
(1677782871.036817) can1 003#3700810000010000
(1677782871.037113) can1 521#000800000000
(1677782871.037292) can1 523#020800000006
(1677782871.037395) can1 522#010800000002
(1677782871.056593) can1 521#000900000000
(1677782871.061383) can1 011#F80008C580000000
(1677782871.076665) can1 521#000A00000001
(1677782871.086379) can1 011#F80008C580000000
(1677782871.097062) can1 521#000B00000001
(1677782871.097177) can1 522#01090000000E
(1677782871.097289) can1 523#0209FFFFFFEE
(1677782871.097404) can1 524#070900000000
(1677782871.111380) can1 011#F80008C580000000
(1677782871.116697) can1 521#000C00000000
(1677782871.136377) can1 011#F80008C580000000
(1677782871.136561) can1 002#260A460000010000
(1677782871.136767) can1 521#000D00000001
(1677782871.136872) can1 003#3700810000010000
(1677782871.157075) can1 521#000E00000001
(1677782871.157190) can1 522#010A00000004
(1677782871.157303) can1 523#020AFFFFFFF8
(1677782871.157416) can1 524#070A00000000
(1677782871.161400) can1 011#F80008C580000000
(1677782871.176715) can1 521#000F00000001
(1677782871.186376) can1 011#F80008C580000000
(1677782871.196728) can1 521#000000000000
(1677782871.211375) can1 011#F80008C580000000
(1677782871.217120) can1 521#000100000000
(1677782871.217237) can1 522#010B0000000E
(1677782871.217350) can1 523#020BFFFFFFF4
(1677782871.217463) can1 524#070B00000000
(1677782871.236375) can1 011#F80008C580000000
(1677782871.236559) can1 002#260A460000010000
(1677782871.236882) can1 521#000200000001
(1677782871.237020) can1 003#3700810000010000
(1677782871.256754) can1 521#000300000000
(1677782871.261380) can1 011#F80008C580000000
(1677782871.277114) can1 521#000400000000
(1677782871.277229) can1 522#010C00000005
(1677782871.277342) can1 523#020C00000002
(1677782871.277455) can1 524#070C00000000
(1677782871.286374) can1 011#F80008C580000000
(1677782871.296766) can1 521#000500000000
(1677782871.311373) can1 011#F80008C580000000
(1677782871.316772) can1 521#000600000000
(1677782871.336374) can1 011#F80008C580000000
(1677782871.336559) can1 002#260A460000010000
(1677782871.336861) can1 003#3700810000010000
(1677782871.337212) can1 521#000700000001
(1677782871.337390) can1 523#020D00000002
(1677782871.337462) can1 522#010D00000001
(1677782871.337607) can1 524#070D00000000
(1677782871.356790) can1 521#000800000000
(1677782871.361379) can1 011#F80008C580000000
(1677782871.376721) can1 521#000900000000
(1677782871.386373) can1 011#F80008C580000000
(1677782871.397180) can1 521#000A00000000
(1677782871.397294) can1 522#010EFFFFFFFE
(1677782871.397407) can1 523#020EFFFFFFF8
(1677782871.397520) can1 524#070E00000000
(1677782871.411374) can1 011#F80008C580000000
(1677782871.416820) can1 521#000B00000000
(1677782871.436373) can1 011#F80008C580000000
(1677782871.436533) can1 002#260A460000010000
(1677782871.436711) can1 003#3700810000010000
(1677782871.436960) can1 521#000C00000000
(1677782871.457225) can1 521#000DFFFFFFFF
(1677782871.457339) can1 522#010FFFFFFFF7
(1677782871.457452) can1 523#020FFFFFFFF8
(1677782871.457565) can1 524#070F00000000
(1677782871.461395) can1 011#F80008C580000000
(1677782871.476760) can1 521#000E00000000
(1677782871.486372) can1 011#F80008C580000000
(1677782871.496768) can1 521#000F00000000
(1677782871.511372) can1 011#F80008C580000000
(1677782871.517241) can1 521#000000000000
(1677782871.517380) can1 522#0100FFFFFFFE
(1677782871.517496) can1 523#0200FFFFFFF4
(1677782871.517608) can1 524#070000000000
(1677782871.536372) can1 011#F80008C580000000
(1677782871.536558) can1 002#260A460000010000
(1677782871.536727) can1 003#3700810000010000
(1677782871.536969) can1 521#000100000001
(1677782871.556886) can1 521#000200000000
(1677782871.561380) can1 011#F80008C580000000
(1677782871.577238) can1 521#000300000000
(1677782871.577359) can1 522#0101FFFFFFF7
(1677782871.577471) can1 523#0201FFFFFFF7
(1677782871.577582) can1 524#070100000000
(1677782871.586375) can1 011#F80008C580000000
(1677782871.596820) can1 521#000400000000
(1677782871.611372) can1 011#F80008C580000000
(1677782871.616822) can1 521#000500000001
(1677782871.636372) can1 011#F80008C580000000
(1677782871.636558) can1 002#260A460000010000
(1677782871.636861) can1 003#3700810000010000
(1677782871.637347) can1 521#000600000001
(1677782871.637468) can1 523#020200000001
(1677782871.637548) can1 522#0102FFFFFFF2
(1677782871.637733) can1 524#070200000000
(1677782871.656961) can1 521#0007FFFFFFFF
(1677782871.661376) can1 011#F80008C580000000
(1677782871.676961) can1 521#000800000001
(1677782871.686366) can1 011#F80008C580000000
(1677782871.697294) can1 521#000900000000
(1677782871.697415) can1 522#0103FFFFFFEF
(1677782871.697527) can1 523#0203FFFFFFFB
(1677782871.697638) can1 524#070300000000
(1677782871.711371) can1 011#F80008C580000000
(1677782871.716972) can1 521#000A00000000
(1677782871.736369) can1 011#F80008C580000000
(1677782871.736554) can1 002#260A460000010000
(1677782871.736857) can1 003#3700810000010000
(1677782871.737073) can1 521#000B00000000
(1677782871.757322) can1 521#000C00000000
(1677782871.757443) can1 522#0104FFFFFFEB
(1677782871.757555) can1 523#02040000000C
(1677782871.757666) can1 524#070400000000
(1677782871.761389) can1 011#F80008C580000000
(1677782871.776899) can1 521#000DFFFFFFFF
(1677782871.786369) can1 011#F80008C580000000
(1677782871.797006) can1 521#000E00000000
(1677782871.811367) can1 011#F80008C580000000
(1677782871.817341) can1 521#000F00000000
(1677782871.817462) can1 522#0105FFFFFFF6
(1677782871.817573) can1 523#020500000000
(1677782871.817684) can1 524#070500000000
(1677782871.836364) can1 011#F80008C580000000
(1677782871.836531) can1 002#260A460000010000
(1677782871.836709) can1 003#3700810000010000
(1677782871.837066) can1 521#000000000000
(1677782871.857049) can1 521#000100000000
(1677782871.861363) can1 011#F80008C580000000
(1677782871.877366) can1 521#000200000001
(1677782871.877487) can1 522#0106FFFFFFF8
(1677782871.877598) can1 523#0206FFFFFFFB
(1677782871.877709) can1 524#070600000000
(1677782871.886364) can1 011#F80008C580000000
(1677782871.896971) can1 521#000300000000
(1677782871.911356) can1 011#F80008C580000000
(1677782871.917045) can1 521#000400000000
(1677782871.936357) can1 011#F80008C580000000
(1677782871.936532) can1 002#260A460000010000
(1677782871.936809) can1 003#3700810000010000
(1677782871.937388) can1 521#000500000000
(1677782871.937500) can1 522#0107FFFFFFFF
(1677782871.937646) can1 523#020700000005
(1677782871.937834) can1 524#070700000000
(1677782871.957041) can1 521#000600000001
(1677782871.961362) can1 011#F80008C580000000
(1677782871.977010) can1 521#000700000000
(1677782871.986356) can1 011#F80008C580000000
(1677782871.997413) can1 521#000800000000
(1677782871.997524) can1 522#010800000004
(1677782871.997626) can1 523#0208FFFFFFF8
(1677782871.997727) can1 524#070800000000
(1677782872.011356) can1 011#F80008C580000000
(1677782872.017052) can1 521#000900000000
(1677782872.036355) can1 011#F80008C580000000
(1677782872.036531) can1 002#260A460000010000
(1677782872.036808) can1 003#3700810000010000
(1677782872.037002) can1 521#000A00000000
(1677782872.057439) can1 521#000B00000001
(1677782872.057551) can1 522#0109FFFFFFF4
(1677782872.057653) can1 523#020900000014
(1677782872.057757) can1 524#070900000000
(1677782872.061381) can1 011#F80008C580000000
(1677782872.077048) can1 521#000C00000002
(1677782872.086357) can1 011#F80008C580000000
(1677782872.097044) can1 521#000D00000001
(1677782872.111355) can1 011#F80008C580000000
(1677782872.117458) can1 521#000E00000000
(1677782872.117570) can1 522#010AFFFFFFEC
(1677782872.117672) can1 523#020A00000001
(1677782872.117773) can1 524#070A00000000
(1677782872.136354) can1 011#F80008C580000000
(1677782872.136529) can1 002#260A460000010000
(1677782872.136788) can1 003#3700810000010000
(1677782872.137128) can1 521#000F00000000
(1677782872.157041) can1 521#0000FFFFFFFF
(1677782872.161360) can1 011#F80008C580000000
(1677782872.177493) can1 521#000100000000
(1677782872.177604) can1 522#010BFFFFFFFE
(1677782872.177706) can1 523#020B00000001
(1677782872.177817) can1 524#070B00000000
(1677782872.186354) can1 011#F80008C580000000
(1677782872.197119) can1 521#000200000000
(1677782872.211353) can1 011#F80008C580000000
(1677782872.217128) can1 521#000300000000
(1677782872.236352) can1 011#F80008C580000000
(1677782872.236527) can1 002#260A460000010000
(1677782872.236787) can1 003#3700810000010000
(1677782872.237498) can1 521#000400000000
(1677782872.237652) can1 522#010C00000000
(1677782872.237811) can1 523#020C00000005
(1677782872.237969) can1 524#070C00000000
(1677782872.257068) can1 521#000500000000
(1677782872.261352) can1 011#F80008C580000000
(1677782872.277152) can1 521#000600000000
(1677782872.286358) can1 011#F80008C580000000
(1677782872.297524) can1 521#000700000001
(1677782872.297627) can1 522#010D00000002
(1677782872.297730) can1 523#020DFFFFFFFC
(1677782872.297890) can1 524#070D00000000
(1677782872.311352) can1 011#F80008C580000000
(1677782872.317091) can1 521#000800000000
(1677782872.336351) can1 011#F80008C580000000
(1677782872.336525) can1 002#260A460000010000
(1677782872.336704) can1 003#3700810000010000
(1677782872.337218) can1 521#000900000000
(1677782872.357572) can1 521#000A00000000
(1677782872.357678) can1 522#010EFFFFFFF8
(1677782872.357781) can1 523#020EFFFFFFEB
(1677782872.357881) can1 524#070E00000000
(1677782872.361374) can1 011#F80008C580000000
(1677782872.377193) can1 521#000B00000000
(1677782872.386364) can1 011#F80008C580000000
(1677782872.397121) can1 521#000C00000000
(1677782872.411351) can1 011#F80008C580000000
(1677782872.417575) can1 521#000D00000000
(1677782872.417677) can1 522#010F00000005
(1677782872.417780) can1 523#020F00000002
(1677782872.417897) can1 524#070F00000000
(1677782872.436349) can1 011#F80008C580000000
(1677782872.436498) can1 002#260A460000010000
(1677782872.436660) can1 003#3700810000010000
(1677782872.437273) can1 521#000E00000000
(1677782872.457144) can1 521#000F00000000
(1677782872.461354) can1 011#F80008C580000000
(1677782872.477609) can1 521#000000000000
(1677782872.477711) can1 522#0100FFFFFFF8
(1677782872.477812) can1 523#020000000005
(1677782872.477976) can1 524#070000000000
(1677782872.486347) can1 011#F80008C580000000
(1677782872.497242) can1 521#000100000000
(1677782872.511347) can1 011#F80008C580000000
(1677782872.517167) can1 521#0002FFFFFFFF
(1677782872.536349) can1 011#F80008C580000000
(1677782872.536521) can1 002#260A460000010000
(1677782872.536700) can1 003#3700810000010000
(1677782872.537657) can1 521#000300000000
(1677782872.537817) can1 522#010100000000
(1677782872.537974) can1 523#0201FFFFFFFE
(1677782872.538043) can1 524#070100000000
(1677782872.557263) can1 521#000400000000
(1677782872.561345) can1 011#F80008C580000000
(1677782872.577193) can1 521#000500000000
(1677782872.586342) can1 011#F80008C580000000
(1677782872.597661) can1 521#000600000000
(1677782872.597763) can1 522#0102FFFFFFFE
(1677782872.597864) can1 523#0202FFFFFFFF
(1677782872.598025) can1 524#070200000000
(1677782872.611346) can1 011#F80008C580000000
(1677782872.617203) can1 521#000700000000
(1677782872.636346) can1 011#F80008C580000000
(1677782872.636519) can1 002#260A460000010000
(1677782872.636697) can1 003#3700810000010000
(1677782872.637269) can1 521#000800000000
(1677782872.657668) can1 521#000900000000
(1677782872.657772) can1 522#0103FFFFFFFC
(1677782872.657889) can1 523#020300000002
(1677782872.658004) can1 524#070300000000
(1677782872.661369) can1 011#F80008C580000000
(1677782872.677307) can1 521#000A00000000
(1677782872.686344) can1 011#F80008C580000000
(1677782872.697312) can1 521#000B00000000
(1677782872.711345) can1 011#F80008C580000000
(1677782872.717695) can1 521#000C00000000
(1677782872.717798) can1 522#0104FFFFFFF2
(1677782872.717899) can1 523#0204FFFFFFF6
(1677782872.718077) can1 524#070400000000
(1677782872.736344) can1 011#F80008C580000000
(1677782872.736493) can1 002#260A460000010000
(1677782872.736655) can1 003#3700810000010000
(1677782872.737308) can1 521#000DFFFFFFFF
(1677782872.757255) can1 521#000E00000000
(1677782872.761349) can1 011#F80008C580000000
(1677782872.777716) can1 521#000F00000000
(1677782872.777832) can1 522#01050000000C
(1677782872.777942) can1 523#0205FFFFFFFC
(1677782872.778043) can1 524#070500000000
(1677782872.786343) can1 011#F80008C580000000
(1677782872.797357) can1 521#000000000000
(1677782872.811343) can1 011#F80008C580000000
(1677782872.817366) can1 521#000100000000
(1677782872.836344) can1 011#F80008C580000000
(1677782872.836490) can1 002#260A460000010000
(1677782872.836653) can1 003#3700810000010000
(1677782872.837786) can1 521#000200000000
(1677782872.837965) can1 522#0106FFFFFFFE
(1677782872.838098) can1 524#070600000000
(1677782872.838170) can1 523#0206FFFFFFF6
(1677782872.857303) can1 521#000300000000
(1677782872.861349) can1 011#F80008C580000000
(1677782872.877388) can1 521#000400000000
(1677782872.886338) can1 011#F80008C580000000
(1677782872.897757) can1 521#000500000001
(1677782872.897890) can1 522#010700000001
(1677782872.898010) can1 523#0207FFFFFFF8
(1677782872.898112) can1 524#070700000000
(1677782872.911338) can1 011#F80008C580000000
(1677782872.917323) can1 521#000600000000
(1677782872.936342) can1 011#F80008C580000000
(1677782872.936489) can1 002#260A460000010000
(1677782872.936652) can1 003#3700810000010000
(1677782872.937349) can1 521#000700000001
(1677782872.957795) can1 521#000800000001
(1677782872.957900) can1 522#0108FFFFFFF3
(1677782872.958003) can1 523#0208FFFFFFFB
(1677782872.958106) can1 524#070800000000
(1677782872.961365) can1 011#F80008C580000000
(1677782872.977342) can1 521#000900000000
(1677782872.986341) can1 011#F80008C580000000
(1677782872.997362) can1 521#000A00000000
(1677782873.011342) can1 011#F80008C580000000
(1677782873.017815) can1 521#000B00000000
(1677782873.017931) can1 522#010900000005
(1677782873.018036) can1 523#02090000001A
(1677782873.018137) can1 524#070900000000
(1677782873.036341) can1 011#F80008C580000000
(1677782873.036513) can1 002#260A460000010000
(1677782873.036692) can1 003#3700810000010000
(1677782873.037454) can1 521#000C00000000
(1677782873.057461) can1 521#000D00000000
(1677782873.061351) can1 011#F80008C580000000
(1677782873.077831) can1 521#000E00000000
(1677782873.077934) can1 522#010A00000004
(1677782873.078034) can1 523#020A00000000
(1677782873.078183) can1 524#070A00000000
(1677782873.086338) can1 011#F80008C580000000
(1677782873.097477) can1 521#000F00000000
(1677782873.111337) can1 011#F80008C580000000
(1677782873.117403) can1 521#000000000000
(1677782873.136338) can1 011#F80008C580000000
(1677782873.136489) can1 002#260A460000010000
(1677782873.136652) can1 003#3700810000010000
(1677782873.137915) can1 521#000100000000
(1677782873.138030) can1 522#010B00000011
(1677782873.138136) can1 523#020BFFFFFFF6
(1677782873.138239) can1 524#070B00000000
(1677782873.157422) can1 521#000200000000
(1677782873.161346) can1 011#F80008C580000000
(1677782873.177504) can1 521#000300000000
(1677782873.186340) can1 011#F80008C580000000
(1677782873.197880) can1 521#000400000000
(1677782873.197983) can1 522#010C00000004
(1677782873.198086) can1 523#020CFFFFFFFE
(1677782873.198235) can1 524#070C00000000
(1677782873.211340) can1 011#F80008C580000000
(1677782873.217441) can1 521#000500000000
(1677782873.236339) can1 011#F80008C580000000
(1677782873.236486) can1 002#260A460000010000
(1677782873.236648) can1 003#3700810000010000
(1677782873.237444) can1 521#000600000001
(1677782873.257909) can1 521#000700000000
(1677782873.258027) can1 522#010D00000009
(1677782873.258130) can1 523#020DFFFFFFF8
(1677782873.258233) can1 524#070D00000000
(1677782873.261364) can1 011#F80008C580000000
(1677782873.277465) can1 521#000800000001
(1677782873.286342) can1 011#F80008C580000000
(1677782873.297547) can1 521#000900000000
(1677782873.311339) can1 011#F80008C580000000
(1677782873.317923) can1 521#000A00000000
(1677782873.318026) can1 522#010E00000002
(1677782873.318126) can1 523#020E00000001
(1677782873.318275) can1 524#070E00000000
(1677782873.336341) can1 011#F80008C580000000
(1677782873.336488) can1 002#260A460000010000
(1677782873.336648) can1 003#3700810000010000
(1677782873.337488) can1 521#000B00000000
(1677782873.357572) can1 521#000C00000000
(1677782873.361345) can1 011#F80008C580000000
(1677782873.377952) can1 521#000D00000000
(1677782873.378055) can1 522#010F00000002
(1677782873.378156) can1 523#020FFFFFFFFF
(1677782873.378257) can1 524#070F00000000
(1677782873.386338) can1 011#F80008C580000000
(1677782873.397525) can1 521#000E00000001
(1677782873.411341) can1 011#F80008C580000000
(1677782873.417517) can1 521#000F00000001
(1677782873.436340) can1 011#F80008C580000000
(1677782873.436486) can1 002#260A460000010000
(1677782873.436649) can1 003#3700810000010000
(1677782873.437975) can1 521#000000000000
(1677782873.438079) can1 522#0100FFFFFFFA
(1677782873.438182) can1 523#020000000008
(1677782873.438343) can1 524#070000000000
(1677782873.457616) can1 521#000100000000
(1677782873.461342) can1 011#F80008C580000000
(1677782873.477626) can1 521#0002FFFFFFFF
(1677782873.486336) can1 011#F80008C580000000
(1677782873.498027) can1 521#000300000000
(1677782873.498130) can1 522#010100000012
(1677782873.498233) can1 523#0201FFFFFFFB
(1677782873.498333) can1 524#070100000000
(1677782873.511336) can1 011#F80008C580000000
(1677782873.517635) can1 521#000400000000
(1677782873.536335) can1 011#F80008C580000000
(1677782873.536482) can1 002#260A460000010000
(1677782873.536644) can1 003#3700810000010000
(1677782873.537688) can1 521#000500000001
(1677782873.558058) can1 521#0006FFFFFFFF
(1677782873.558163) can1 522#010200000019
(1677782873.558264) can1 523#020200000001
(1677782873.558427) can1 524#070200000000
(1677782873.561361) can1 011#F80008C580000000
(1677782873.577581) can1 521#000700000002
(1677782873.586336) can1 011#F80008C580000000
(1677782873.597669) can1 521#000800000000
(1677782873.611336) can1 011#F80008C580000000
(1677782873.618035) can1 521#000900000000
(1677782873.618138) can1 522#0103FFFFFFF4
(1677782873.618240) can1 523#020300000010
(1677782873.618390) can1 524#070300000000
(1677782873.636332) can1 011#F80008C580000000
(1677782873.636481) can1 002#260A460000010000
(1677782873.636643) can1 003#3700810000010000
(1677782873.637751) can1 521#000A00000000
(1677782873.657694) can1 521#000BFFFFFFFF
(1677782873.661338) can1 011#F80008C580000000
(1677782873.678063) can1 521#000C00000001
(1677782873.678165) can1 522#010400000006
(1677782873.678266) can1 523#0204FFFFFFFF
(1677782873.678427) can1 524#070400000000
(1677782873.686327) can1 011#F80008C580000000
(1677782873.697627) can1 521#000D00000000
(1677782873.711333) can1 011#F80008C580000000
(1677782873.717720) can1 521#000EFFFFFFFF
(1677782873.736332) can1 011#F80008C580000000
(1677782873.736477) can1 002#260A460000010000
(1677782873.736640) can1 003#3700810000010000
(1677782873.738083) can1 521#000F00000001
(1677782873.738188) can1 522#010500000000
(1677782873.738292) can1 523#020500000008
(1677782873.738453) can1 524#070500000000
(1677782873.757651) can1 521#000000000000
(1677782873.761326) can1 011#F80008C580000000
(1677782873.777737) can1 521#000100000002
(1677782873.786325) can1 011#F80008C580000000
(1677782873.798106) can1 521#0002FFFFFFFF
(1677782873.798209) can1 522#010600000006
(1677782873.798310) can1 523#020600000009
(1677782873.798477) can1 524#070600000000
(1677782873.811331) can1 011#F80008C580000000
(1677782873.817753) can1 521#000300000000
(1677782873.836331) can1 011#F80008C580000000
(1677782873.836501) can1 002#260A460000010000
(1677782873.836680) can1 003#3700810000010000
(1677782873.837745) can1 521#000400000000
(1677782873.858130) can1 521#000500000000
(1677782873.858233) can1 522#0107FFFFFFEC
(1677782873.858336) can1 523#020700000000
(1677782873.858505) can1 524#070700000000
(1677782873.861355) can1 011#F80008C580000000
(1677782873.877701) can1 521#000600000000
(1677782873.886323) can1 011#F80008C580000000
(1677782873.897703) can1 521#000700000000
(1677782873.911324) can1 011#F80008C580000000
(1677782873.918165) can1 521#000800000000
(1677782873.918270) can1 522#0108FFFFFFF0
(1677782873.918374) can1 523#020800000010
(1677782873.918523) can1 524#070800000000
(1677782873.936330) can1 011#F80008C580000000
(1677782873.936480) can1 002#260A460000010000
(1677782873.936643) can1 003#3700810000010000
(1677782873.937884) can1 521#000900000001
(1677782873.957725) can1 521#000A00000001
(1677782873.961330) can1 011#F80008C580000000
(1677782873.978190) can1 521#000B00000000
(1677782873.978293) can1 522#0109FFFFFFFE
(1677782873.978394) can1 523#0209FFFFFFFB
(1677782873.978555) can1 524#070900000000
(1677782873.986327) can1 011#F80008C580000000
(1677782873.997752) can1 521#000C00000000
(1677782874.011329) can1 011#F80008C580000000
(1677782874.017752) can1 521#000D00000000
(1677782874.036328) can1 011#F80008C580000000
(1677782874.036500) can1 002#260A460000010000
(1677782874.036678) can1 003#3700810000010000
(1677782874.038218) can1 521#000E00000000
(1677782874.038320) can1 522#010A00000016
(1677782874.038423) can1 523#020AFFFFFFEE
(1677782874.038585) can1 524#070A00000000
(1677782874.057866) can1 521#000F00000000
(1677782874.061334) can1 011#F80008C580000000
(1677782874.077858) can1 521#000000000000
(1677782874.086329) can1 011#F80008C580000000
(1677782874.098250) can1 521#000100000000
(1677782874.098353) can1 522#010BFFFFFFFC
(1677782874.098454) can1 523#020BFFFFFFEF
(1677782874.098633) can1 524#070B00000000
(1677782874.111328) can1 011#F80008C580000000
(1677782874.117873) can1 521#000200000000
(1677782874.136327) can1 011#F80008C580000000
(1677782874.136556) can1 002#260A460000010000
(1677782874.136711) can1 003#3700810000010000
(1677782874.137882) can1 521#000300000000
(1677782874.158258) can1 521#000400000000
(1677782874.158362) can1 522#010C00000018
(1677782874.158466) can1 523#020CFFFFFFE3
(1677782874.158569) can1 524#070C00000000
(1677782874.161351) can1 011#F80008C580000000
(1677782874.177827) can1 521#000500000000
(1677782874.186326) can1 011#F80008C580000000
(1677782874.197823) can1 521#000600000001
(1677782874.211328) can1 011#F80008C580000000
(1677782874.218289) can1 521#000700000000
(1677782874.218392) can1 522#010D00000008
(1677782874.218496) can1 523#020DFFFFFFFA
(1677782874.218642) can1 524#070D00000000
(1677782874.236325) can1 011#F80008C580000000
(1677782874.236471) can1 002#260A460000010000
(1677782874.236633) can1 003#3700810000010000
(1677782874.237891) can1 521#000800000000
(1677782874.257936) can1 521#000900000000
(1677782874.261330) can1 011#F80008C580000000
(1677782874.278299) can1 521#000A00000000
(1677782874.278402) can1 522#010EFFFFFFF7
(1677782874.278506) can1 523#020E00000009
(1677782874.278652) can1 524#070E00000000
(1677782874.286323) can1 011#F80008C580000000
(1677782874.297874) can1 521#000B00000000
(1677782874.311323) can1 011#F80008C580000000
(1677782874.317950) can1 521#000C00000000
(1677782874.336324) can1 011#F80008C580000000
(1677782874.336470) can1 002#260A460000010000
(1677782874.336632) can1 003#3700810000010000
(1677782874.338320) can1 521#000D00000000
(1677782874.338423) can1 522#010F00000001
(1677782874.338526) can1 523#020FFFFFFFEC
(1677782874.338703) can1 524#070F00000000
(1677782874.357960) can1 521#000E00000000
(1677782874.361328) can1 011#F80008C580000000
(1677782874.377901) can1 521#000F00000000
(1677782874.386322) can1 011#F80008C580000000
(1677782874.398345) can1 521#000000000000
(1677782874.398447) can1 522#010000000008
(1677782874.398548) can1 523#020000000001
(1677782874.398695) can1 524#070000000000
(1677782874.411321) can1 011#F80008C580000000
(1677782874.417905) can1 521#000100000000
(1677782874.436321) can1 011#F80008C580000000
(1677782874.436470) can1 002#260A460000010000
(1677782874.436632) can1 003#3700810000010000
(1677782874.437941) can1 521#000200000000
(1677782874.458375) can1 521#000300000000
(1677782874.458479) can1 522#010100000002
(1677782874.458582) can1 523#0201FFFFFFF3
(1677782874.458686) can1 524#070100000000
(1677782874.461347) can1 011#F80008C580000000
(1677782874.478010) can1 521#000400000000
(1677782874.486322) can1 011#F80008C580000000
(1677782874.497951) can1 521#000500000000
(1677782874.511322) can1 011#F80008C580000000
(1677782874.518394) can1 521#000600000000
(1677782874.518498) can1 522#010200000008
(1677782874.518599) can1 523#0202FFFFFFF4
(1677782874.518738) can1 524#070200000000
(1677782874.536322) can1 011#F80008C580000000
(1677782874.536497) can1 002#260A460000010000
(1677782874.536675) can1 003#3700810000010000
(1677782874.537974) can1 521#000700000001
(1677782874.557962) can1 521#000800000000
(1677782874.561328) can1 011#F80008C580000000
(1677782874.578432) can1 521#000900000000
(1677782874.578535) can1 522#0103FFFFFFFC
(1677782874.578638) can1 523#020300000005
(1677782874.578832) can1 524#070300000000
(1677782874.586321) can1 011#F80008C580000000
(1677782874.598057) can1 521#000A00000000
(1677782874.611321) can1 011#F80008C580000000
(1677782874.618061) can1 521#000B00000000
(1677782874.636320) can1 011#F80008C580000000
(1677782874.636492) can1 002#260A460000010000
(1677782874.636670) can1 003#3700810000010000
(1677782874.638445) can1 521#000C00000000
(1677782874.638550) can1 522#0104FFFFFFFB
(1677782874.638653) can1 523#0204FFFFFFF6
(1677782874.638754) can1 524#070400000000
(1677782874.658081) can1 521#000D00000000
(1677782874.661324) can1 011#F80008C580000000
(1677782874.678006) can1 521#000E00000001
(1677782874.686320) can1 011#F80008C580000000
(1677782874.698454) can1 521#000F00000000
(1677782874.698557) can1 522#0105FFFFFFF2
(1677782874.698660) can1 523#0205FFFFFFFE
(1677782874.698836) can1 524#070500000000
(1677782874.711320) can1 011#F80008C580000000
(1677782874.718025) can1 521#000000000000
(1677782874.736319) can1 011#F80008C580000000
(1677782874.736548) can1 002#260A460000010000
(1677782874.736704) can1 003#3700810000010000
(1677782874.738110) can1 521#000100000000
(1677782874.758479) can1 521#000200000001
(1677782874.758584) can1 522#010600000008
(1677782874.758687) can1 523#020600000000
(1677782874.758805) can1 524#070600000000
(1677782874.761341) can1 011#F80008C580000000
(1677782874.778050) can1 521#000300000000
(1677782874.786311) can1 011#F80008C580000000
(1677782874.798054) can1 521#000400000001
(1677782874.811326) can1 011#F80008C580000000
(1677782874.818505) can1 521#000500000000
(1677782874.818608) can1 522#0107FFFFFFEB
(1677782874.818709) can1 523#020700000002
(1677782874.818881) can1 524#070700000000
(1677782874.836317) can1 011#F80008C580000000
(1677782874.836489) can1 002#260A460000010000
(1677782874.836666) can1 003#3700810000010000
(1677782874.838073) can1 521#000600000000
(1677782874.858159) can1 521#000700000000
(1677782874.861321) can1 011#F80008C580000000
(1677782874.878538) can1 521#000800000001
(1677782874.878645) can1 522#010800000014
(1677782874.878748) can1 523#020800000002
(1677782874.878865) can1 524#070800000000
(1677782874.886316) can1 011#F80008C580000000
(1677782874.898095) can1 521#000900000000
(1677782874.911328) can1 011#F80008C580000000
(1677782874.918183) can1 521#000A00000000
(1677782874.936317) can1 011#F80008C580000000
(1677782874.936486) can1 002#260A460000010000
(1677782874.936664) can1 003#3700810000010000
(1677782874.938552) can1 521#000B00000000
(1677782874.938655) can1 522#010900000002
(1677782874.938758) can1 523#020900000001
(1677782874.938877) can1 524#070900000000
(1677782874.958200) can1 521#000C00000000
(1677782874.961319) can1 011#F80008C580000000
(1677782874.978124) can1 521#000D00000000
(1677782874.986314) can1 011#F80008C580000000
(1677782874.998572) can1 521#000E00000000
(1677782874.998679) can1 522#010AFFFFFFEF
(1677782874.998781) can1 523#020A00000005
(1677782874.998903) can1 524#070A00000000
(1677782875.011312) can1 011#F80008C580000000
(1677782875.018145) can1 521#000F00000000
(1677782875.036314) can1 011#F80008C580000000
(1677782875.036463) can1 002#260A460000010000
(1677782875.036625) can1 003#3700810000010000
(1677782875.038227) can1 521#0000FFFFFFFF
(1677782875.058603) can1 521#000100000000
(1677782875.058705) can1 522#010B00000006
(1677782875.058816) can1 523#020BFFFFFFF3
(1677782875.058920) can1 524#070B00000000
(1677782875.061339) can1 011#F80008C580000000
(1677782875.078171) can1 521#000200000000
(1677782875.086314) can1 011#F80008C580000000
(1677782875.098178) can1 521#000300000000
(1677782875.111312) can1 011#F80008C580000000
(1677782875.118627) can1 521#000400000000
(1677782875.118731) can1 522#010CFFFFFFF7
(1677782875.118848) can1 523#020C00000018
(1677782875.118963) can1 524#070C00000000
(1677782875.136312) can1 011#F80008C580000000
(1677782875.136484) can1 002#260A460000010000
(1677782875.136661) can1 003#3700810000010000
(1677782875.138196) can1 521#000500000000
(1677782875.158275) can1 521#000600000000
(1677782875.161317) can1 011#F80008C580000000
(1677782875.178646) can1 521#000700000000
(1677782875.178748) can1 522#010DFFFFFFF7
(1677782875.178892) can1 523#020D00000005
(1677782875.179012) can1 524#070D00000000
(1677782875.186311) can1 011#F80008C580000000
(1677782875.198212) can1 521#000800000000
(1677782875.211311) can1 011#F80008C580000000
(1677782875.218298) can1 521#000900000000
(1677782875.236311) can1 011#F80008C580000000
(1677782875.236481) can1 002#260A460000010000
(1677782875.236660) can1 003#3700810000010000
(1677782875.238672) can1 521#000A00000000
(1677782875.238777) can1 522#010E00000004
(1677782875.238899) can1 523#020EFFFFFFFB
(1677782875.239018) can1 524#070E00000000
(1677782875.258318) can1 521#000B00000000
(1677782875.261315) can1 011#F80008C580000000
(1677782875.278323) can1 521#000C00000001
(1677782875.286310) can1 011#F80008C580000000
(1677782875.298700) can1 521#000D00000000
(1677782875.298815) can1 522#010F00000006
(1677782875.298917) can1 523#020FFFFFFFF2
(1677782875.299034) can1 524#070F00000000
(1677782875.311310) can1 011#F80008C580000000
(1677782875.318339) can1 521#000E00000000
(1677782875.336311) can1 011#F80008C580000000
(1677782875.336538) can1 002#260A460000010000
(1677782875.336694) can1 003#3700810000010000
(1677782875.338264) can1 521#000F00000001
(1677782875.358716) can1 521#000000000000
(1677782875.358857) can1 522#0100FFFFFFF8
(1677782875.358979) can1 523#0200FFFFFFF4
(1677782875.359082) can1 524#070000000000
(1677782875.361334) can1 011#F80008C580000000
(1677782875.378367) can1 521#0001FFFFFFFF
(1677782875.386310) can1 011#F80008C580000000
(1677782875.398372) can1 521#000200000001
(1677782875.411310) can1 011#F80008C580000000
(1677782875.418745) can1 521#0003FFFFFFFF
(1677782875.418864) can1 522#010100000008
(1677782875.418980) can1 523#020100000000
(1677782875.419081) can1 524#070100000000
(1677782875.436305) can1 011#F80008C580000000
(1677782875.436452) can1 002#260A460000010000
(1677782875.436614) can1 003#3700810000010000
(1677782875.438333) can1 521#000400000000
(1677782875.458397) can1 521#000500000000
(1677782875.461309) can1 011#F80008C580000000
(1677782875.478761) can1 521#000600000000
(1677782875.478880) can1 522#010200000012
(1677782875.479021) can1 523#020200000002
(1677782875.479128) can1 524#070200000000
(1677782875.486308) can1 011#F80008C580000000
(1677782875.498413) can1 521#000700000001
(1677782875.511309) can1 011#F80008C580000000
(1677782875.518342) can1 521#000800000000
(1677782875.536308) can1 011#F80008C580000000
(1677782875.536454) can1 002#260A460000010000
(1677782875.536616) can1 003#3700810000010000
(1677782875.538814) can1 521#000900000000
(1677782875.538917) can1 522#0103FFFFFFFC
(1677782875.539037) can1 523#0203FFFFFFF2
(1677782875.539140) can1 524#070300000000
(1677782875.558434) can1 521#000A00000001
(1677782875.561314) can1 011#F80008C580000000
(1677782875.578367) can1 521#000B00000000
(1677782875.586308) can1 011#F80008C580000000
(1677782875.598845) can1 521#000C00000001
(1677782875.598964) can1 522#01040000000E
(1677782875.599066) can1 523#02040000000E
(1677782875.599167) can1 524#070400000000
(1677782875.611308) can1 011#F80008C580000000
(1677782875.618459) can1 521#000D00000000
(1677782875.636306) can1 011#F80008C580000000
(1677782875.636454) can1 002#260A460000010000
(1677782875.636616) can1 003#3700810000010000
(1677782875.638390) can1 521#000E00000000
(1677782875.658867) can1 521#000F00000000
(1677782875.659005) can1 522#0105FFFFFFF6
(1677782875.659112) can1 523#020500000000
(1677782875.659215) can1 524#070500000000
(1677782875.661331) can1 011#F80008C580000000
(1677782875.678408) can1 521#000000000001
(1677782875.686296) can1 011#F80008C580000000
(1677782875.698497) can1 521#000100000000
(1677782875.711303) can1 011#F80008C580000000
(1677782875.718888) can1 521#000200000000
(1677782875.719004) can1 522#0106FFFFFFF8
(1677782875.719106) can1 523#020600000001
(1677782875.719207) can1 524#070600000000
(1677782875.736306) can1 011#F80008C580000000
(1677782875.736453) can1 002#260A460000010000
(1677782875.736615) can1 003#3700810000010000
(1677782875.738456) can1 521#000300000001
(1677782875.758436) can1 521#000400000000
(1677782875.761307) can1 011#F80008C580000000
(1677782875.778903) can1 521#000500000000
(1677782875.779042) can1 522#010700000005
(1677782875.779151) can1 523#0207FFFFFFE8
(1677782875.779255) can1 524#070700000000
(1677782875.786305) can1 011#F80008C580000000
(1677782875.798538) can1 521#000600000000
(1677782875.811305) can1 011#F80008C580000000
(1677782875.818465) can1 521#000700000000
(1677782875.836306) can1 011#F80008C580000000
(1677782875.836452) can1 002#260A460000010000
(1677782875.836615) can1 003#3700810000010000
(1677782875.838919) can1 521#000800000000
(1677782875.839035) can1 522#01080000000D
(1677782875.839140) can1 523#0208FFFFFFEE
(1677782875.839245) can1 524#070800000000
(1677782875.858582) can1 521#000900000000
(1677782875.861322) can1 011#F80008C580000000
(1677782875.878566) can1 521#000AFFFFFFFF
(1677782875.886306) can1 011#F80008C580000000
(1677782875.898961) can1 521#000B00000000
(1677782875.899067) can1 522#0109FFFFFFFC
(1677782875.899163) can1 523#0209FFFFFFFC
(1677782875.899259) can1 524#070900000000
(1677782875.911303) can1 011#F80008C580000000
(1677782875.918584) can1 521#000C00000000
(1677782875.936304) can1 011#F80008C580000000
(1677782875.936451) can1 002#260A460000010000
(1677782875.936608) can1 003#3700810000010000
(1677782875.938508) can1 521#000D00000001
(1677782875.958993) can1 521#000E00000000
(1677782875.959105) can1 522#010AFFFFFFFF
(1677782875.959208) can1 523#020A00000002
(1677782875.959309) can1 524#070A00000000
(1677782875.961325) can1 011#F80008C580000000
(1677782875.978600) can1 521#000F00000001
(1677782875.986304) can1 011#F80008C580000000
(1677782875.998540) can1 521#000000000000
(1677782876.011341) can1 011#F80008C580000000
(1677782876.019002) can1 521#000100000001
(1677782876.019113) can1 522#010BFFFFFFF4
(1677782876.019214) can1 523#020B00000004
(1677782876.019316) can1 524#070B00000000
(1677782876.036304) can1 011#F80008C580000000
(1677782876.036455) can1 002#260A460000010000
(1677782876.036615) can1 003#3700810000010000
(1677782876.038626) can1 521#000200000000
(1677782876.058574) can1 521#000300000000
(1677782876.061318) can1 011#F80008C580000000
(1677782876.079034) can1 521#000400000002
(1677782876.079155) can1 522#010CFFFFFFFE
(1677782876.079267) can1 523#020CFFFFFFF3
(1677782876.079378) can1 524#070C00000000
(1677782876.086315) can1 011#F80008C580000000
(1677782876.098582) can1 521#000500000002
(1677782876.111313) can1 011#F80008C580000000
(1677782876.118588) can1 521#000600000000
(1677782876.136311) can1 011#F80008C580000000
(1677782876.136514) can1 002#260A460000010000
(1677782876.136647) can1 003#3700810000010000
(1677782876.139055) can1 521#000700000001
(1677782876.139176) can1 522#010DFFFFFFF4
(1677782876.139287) can1 523#020DFFFFFFFC
(1677782876.139398) can1 524#070D00000000
(1677782876.158601) can1 521#000800000000
(1677782876.161316) can1 011#F80008C580000000
(1677782876.178695) can1 521#000900000001
(1677782876.186310) can1 011#F80008C580000000
(1677782876.199058) can1 521#000AFFFFFFFE
(1677782876.199180) can1 522#010E00000005
(1677782876.199291) can1 523#020EFFFFFFFE
(1677782876.199402) can1 524#070E00000000
(1677782876.211312) can1 011#F80008C580000000
(1677782876.218645) can1 521#000B00000000
(1677782876.236308) can1 011#F80008C580000000
(1677782876.236463) can1 002#260A460000010000
(1677782876.236647) can1 003#3700810000010000
(1677782876.238636) can1 521#000C00000000
(1677782876.259084) can1 521#000D00000000
(1677782876.259199) can1 522#010F00000000
(1677782876.259312) can1 523#020FFFFFFFFF
(1677782876.259424) can1 524#070F00000000
(1677782876.261332) can1 011#F80008C580000000
(1677782876.278728) can1 521#000E00000000
(1677782876.286301) can1 011#F80008C580000000
(1677782876.298734) can1 521#000F00000001
(1677782876.311304) can1 011#F80008C580000000
(1677782876.319125) can1 521#000000000000
(1677782876.319240) can1 522#0100FFFFFFFF
(1677782876.319353) can1 523#0200FFFFFFF0
(1677782876.319466) can1 524#070000000000
(1677782876.336309) can1 011#F80008C580000000
(1677782876.336496) can1 002#260A460000010000
(1677782876.336805) can1 003#3700810000010000
(1677782876.338753) can1 521#000100000000
(1677782876.358677) can1 521#000200000001
(1677782876.361308) can1 011#F80008C580000000
(1677782876.379128) can1 521#000300000001
(1677782876.379245) can1 522#010100000004
(1677782876.379358) can1 523#0201FFFFFFFF
(1677782876.379470) can1 524#070100000000
(1677782876.386306) can1 011#F80008C580000000
(1677782876.398695) can1 521#000400000000
(1677782876.411306) can1 011#F80008C580000000
(1677782876.418700) can1 521#000500000000
(1677782876.436306) can1 011#F80008C580000000
(1677782876.436492) can1 002#260A460000010000
(1677782876.436662) can1 003#3700810000010000
(1677782876.439157) can1 521#000600000000
(1677782876.439272) can1 522#01020000000C
(1677782876.439387) can1 523#020200000000
(1677782876.439499) can1 524#070200000000
(1677782876.458720) can1 521#000700000000
(1677782876.461305) can1 011#F80008C580000000
(1677782876.478725) can1 521#000800000000
(1677782876.486300) can1 011#F80008C580000000
(1677782876.499177) can1 521#000900000000
(1677782876.499292) can1 522#010300000008
(1677782876.499407) can1 523#020300000004
(1677782876.499519) can1 524#070300000000
(1677782876.511304) can1 011#F80008C580000000
(1677782876.518834) can1 521#000A00000000
(1677782876.536304) can1 011#F80008C580000000
(1677782876.536489) can1 002#260A460000010000
(1677782876.536778) can1 003#3700810000010000
(1677782876.538747) can1 521#000B00000000
(1677782876.559206) can1 521#000C00000000
(1677782876.559321) can1 522#010400000018
(1677782876.559434) can1 523#020400000006
(1677782876.559547) can1 524#070400000000
(1677782876.561328) can1 011#F80008C580000000
(1677782876.578860) can1 521#000D00000000
(1677782876.586304) can1 011#F80008C580000000
(1677782876.598865) can1 521#000E00000000
(1677782876.611304) can1 011#F80008C580000000
(1677782876.619231) can1 521#000F00000000
(1677782876.619346) can1 522#0105FFFFFFFC
(1677782876.619459) can1 523#0205FFFFFFF2
(1677782876.619571) can1 524#070500000000
(1677782876.636309) can1 011#F80008C580000000
(1677782876.636503) can1 002#260A460000010000
(1677782876.636779) can1 003#3700810000010000
(1677782876.638888) can1 521#000000000000
(1677782876.658811) can1 521#000100000001
(1677782876.661308) can1 011#F80008C580000000
(1677782876.679249) can1 521#000200000000
(1677782876.679363) can1 522#0106FFFFFFEE
(1677782876.679476) can1 523#020600000004
(1677782876.679589) can1 524#070600000000
(1677782876.686301) can1 011#F80008C580000000
(1677782876.698834) can1 521#000300000000
(1677782876.711302) can1 011#F80008C580000000
(1677782876.718834) can1 521#000400000000
(1677782876.736307) can1 011#F80008C580000000
(1677782876.736497) can1 002#260A460000010000
(1677782876.736778) can1 003#3700810000010000
(1677782876.739286) can1 521#0005FFFFFFFF
(1677782876.739401) can1 522#010700000009
(1677782876.739514) can1 523#0207FFFFFFFC
(1677782876.739626) can1 524#070700000000
(1677782876.758857) can1 521#000600000000
(1677782876.761307) can1 011#F80008C580000000
(1677782876.778860) can1 521#000700000000
(1677782876.786301) can1 011#F80008C580000000
(1677782876.799301) can1 521#000800000000
(1677782876.799416) can1 522#010800000008
(1677782876.799530) can1 523#020800000004
(1677782876.799644) can1 524#070800000000
(1677782876.811301) can1 011#F80008C580000000
(1677782876.818949) can1 521#000900000000
(1677782876.836303) can1 011#F80008C580000000
(1677782876.836465) can1 002#260A460000010000
(1677782876.836643) can1 003#3700810000010000
(1677782876.838881) can1 521#000A00000001
(1677782876.859316) can1 521#000B00000000
(1677782876.859430) can1 522#010900000000
(1677782876.859543) can1 523#0209FFFFFFFA
(1677782876.859656) can1 524#070900000000
(1677782876.861320) can1 011#F80008C580000000
(1677782876.878973) can1 521#000C00000000
(1677782876.886291) can1 011#F80008C580000000
(1677782876.898906) can1 521#000D00000000
(1677782876.911293) can1 011#F80008C580000000
(1677782876.919344) can1 521#000E00000000
(1677782876.919459) can1 522#010A00000004
(1677782876.919572) can1 523#020AFFFFFFF7
(1677782876.919685) can1 524#070A00000000
(1677782876.936299) can1 011#F80008C580000000
(1677782876.936460) can1 002#260A460000010000
(1677782876.936723) can1 003#3700810000010000
(1677782876.939000) can1 521#000F00000000
(1677782876.958916) can1 521#000000000000
(1677782876.961304) can1 011#F80008C580000000
(1677782876.979366) can1 521#000100000000
(1677782876.979481) can1 522#010B00000006
(1677782876.979594) can1 523#020B00000004
(1677782876.979707) can1 524#070B00000000
(1677782876.986292) can1 011#F80008C580000000
(1677782876.999025) can1 521#000200000000
(1677782877.011299) can1 011#F80008C580000000
(1677782877.018949) can1 521#0003FFFFFFFE
(1677782877.036298) can1 011#F80008C580000000
(1677782877.036460) can1 002#260A460000010000
(1677782877.036722) can1 003#3700810000010000
(1677782877.039393) can1 521#000400000000
(1677782877.039507) can1 522#010CFFFFFFFA
(1677782877.039620) can1 523#020CFFFFFFF6
(1677782877.039733) can1 524#070C00000000
(1677782877.058970) can1 521#000500000000
(1677782877.061303) can1 011#F80008C580000000
(1677782877.078975) can1 521#0006FFFFFFFF
(1677782877.086297) can1 011#F80008C580000000
(1677782877.099426) can1 521#000700000000
(1677782877.099541) can1 522#010DFFFFFFFB
(1677782877.099655) can1 523#020D00000001
(1677782877.099768) can1 524#070D00000000
(1677782877.111296) can1 011#F80008C580000000
(1677782877.118995) can1 521#000800000000
(1677782877.136295) can1 011#F80008C580000000
(1677782877.136457) can1 002#260A460000010000
(1677782877.136721) can1 003#3700810000010000
(1677782877.139003) can1 521#000900000000
(1677782877.159448) can1 521#000A00000000
(1677782877.159563) can1 522#010EFFFFFFFF
(1677782877.159676) can1 523#020EFFFFFFEE
(1677782877.159788) can1 524#070E00000000
(1677782877.161323) can1 011#F80008C580000000
(1677782877.179017) can1 521#000B00000001
(1677782877.186299) can1 011#F80008C580000000
(1677782877.199092) can1 521#000C00000000
(1677782877.211301) can1 011#F80008C580000000
(1677782877.219457) can1 521#000D00000000
(1677782877.219574) can1 522#010F00000000
(1677782877.219686) can1 523#020FFFFFFFFF
(1677782877.219799) can1 524#070F00000000
(1677782877.236290) can1 011#F80008C580000000
(1677782877.236451) can1 002#260A460000010000
(1677782877.236630) can1 003#3700810000010000
(1677782877.239041) can1 521#000E00000000
(1677782877.259116) can1 521#000F00000000
(1677782877.261295) can1 011#F80008C580000000
(1677782877.279488) can1 521#000000000000
(1677782877.279605) can1 522#010000000001
(1677782877.279718) can1 523#0200FFFFFFEE
(1677782877.279830) can1 524#070000000000
(1677782877.286296) can1 011#F80008C580000000
(1677782877.299054) can1 521#000100000001
(1677782877.311298) can1 011#F80008C580000000
(1677782877.319137) can1 521#000200000000
(1677782877.336298) can1 011#F80008C580000000
(1677782877.336484) can1 002#260A460000010000
(1677782877.336774) can1 003#3700810000010000
(1677782877.339513) can1 521#000300000000
(1677782877.339628) can1 522#0101FFFFFFFB
(1677782877.339741) can1 523#0201FFFFFFFA
(1677782877.339854) can1 524#070100000000
(1677782877.359070) can1 521#000400000000
(1677782877.361301) can1 011#F80008C580000000
(1677782877.379079) can1 521#000500000000
(1677782877.386295) can1 011#F80008C580000000
(1677782877.399541) can1 521#000600000000
(1677782877.399656) can1 522#010200000006
(1677782877.399773) can1 523#0202FFFFFFE4
(1677782877.399886) can1 524#070200000000
(1677782877.411296) can1 011#F80008C580000000
(1677782877.419177) can1 521#000700000000
(1677782877.436319) can1 011#F80008C580000000
(1677782877.436490) can1 002#260A460000010000
(1677782877.436780) can1 003#3700810000010000
(1677782877.439190) can1 521#000800000000
(1677782877.459581) can1 521#0009FFFFFFFF
(1677782877.459695) can1 522#0103FFFFFFFA
(1677782877.459811) can1 523#0203FFFFFFF2
(1677782877.459920) can1 524#070300000000
(1677782877.461320) can1 011#F80008C580000000
(1677782877.479120) can1 521#000A00000000
(1677782877.486294) can1 011#F80008C580000000
(1677782877.499133) can1 521#000B00000000
(1677782877.511296) can1 011#F80008C580000000
(1677782877.519580) can1 521#000C00000000
(1677782877.519694) can1 522#010400000004
(1677782877.519807) can1 523#0204FFFFFFFC
(1677782877.519922) can1 524#070400000000
(1677782877.536291) can1 011#F80008C580000000
(1677782877.536452) can1 002#260A460000010000
(1677782877.536630) can1 003#3700810000010000
(1677782877.539229) can1 521#000D00000000
(1677782877.559151) can1 521#000E00000000
(1677782877.561296) can1 011#F80008C580000000
(1677782877.579598) can1 521#000F00000001
(1677782877.579712) can1 522#0105FFFFFFF0
(1677782877.579825) can1 523#020500000006
(1677782877.579940) can1 524#070500000000
(1677782877.586292) can1 011#F80008C580000000
(1677782877.599172) can1 521#0000FFFFFFFF
(1677782877.611292) can1 011#F80008C580000000
(1677782877.619255) can1 521#000100000002
(1677782877.636290) can1 011#F80008C580000000
(1677782877.636448) can1 002#260A460000010000
(1677782877.636621) can1 003#3700810000010000
(1677782877.639638) can1 521#000200000000
(1677782877.639750) can1 522#0106FFFFFFF2
(1677782877.639864) can1 523#0206FFFFFFFE
(1677782877.639974) can1 524#070600000000
(1677782877.659270) can1 521#000300000000
(1677782877.661294) can1 011#F80008C580000000
(1677782877.679275) can1 521#000400000000
(1677782877.686288) can1 011#F80008C580000000
(1677782877.699662) can1 521#000500000000
(1677782877.699774) can1 522#0107FFFFFFFF
(1677782877.699887) can1 523#020700000009
(1677782877.700071) can1 524#070700000000
(1677782877.711290) can1 011#F80008C580000000
(1677782877.719294) can1 521#000600000001
(1677782877.736290) can1 011#F80008C580000000
(1677782877.736447) can1 002#260A460000010000
(1677782877.736625) can1 003#3700810000010000
(1677782877.739301) can1 521#000700000000
(1677782877.759691) can1 521#000800000001
(1677782877.759803) can1 522#0108FFFFFFFB
(1677782877.759914) can1 523#0208FFFFFFF8
(1677782877.760024) can1 524#070800000000
(1677782877.761313) can1 011#F80008C580000000
(1677782877.779236) can1 521#000900000000
(1677782877.786288) can1 011#F80008C580000000
(1677782877.799244) can1 521#000A00000001
(1677782877.811291) can1 011#F80008C580000000
(1677782877.819702) can1 521#000B00000000
(1677782877.819816) can1 522#0109FFFFFFF6
(1677782877.819927) can1 523#0209FFFFFFFB
(1677782877.820038) can1 524#070900000000
(1677782877.836289) can1 011#F80008C580000000
(1677782877.836449) can1 002#260A460000010000
(1677782877.836625) can1 003#3700810000010000
(1677782877.839341) can1 521#000C00000002
(1677782877.859273) can1 521#000D00000000
(1677782877.861292) can1 011#F80008C580000000
(1677782877.879720) can1 521#000E00000000
(1677782877.879832) can1 522#010A00000001
(1677782877.879943) can1 523#020A00000009
(1677782877.880053) can1 524#070A00000000
(1677782877.886286) can1 011#F80008C580000000
(1677782877.899290) can1 521#000F00000001
(1677782877.911287) can1 011#F80008C580000000
(1677782877.919376) can1 521#000000000000
(1677782877.936283) can1 011#F80008C580000000
(1677782877.936444) can1 002#260A460000010000
(1677782877.936620) can1 003#3700810000010000
(1677782877.939792) can1 521#000100000000
(1677782877.939927) can1 522#010BFFFFFFFF
(1677782877.940034) can1 523#020BFFFFFFFA
(1677782877.940145) can1 524#070B00000000
(1677782877.959316) can1 521#000200000000
(1677782877.961321) can1 011#F80008C580000000
(1677782877.979402) can1 521#000300000001
(1677782877.986287) can1 011#F80008C580000000
(1677782877.999769) can1 521#000400000000
(1677782877.999883) can1 522#010C00000004
(1677782877.999997) can1 523#020C00000001
(1677782878.000107) can1 524#070C00000000
(1677782878.011279) can1 011#F80008C580000000
(1677782878.019330) can1 521#000500000000
(1677782878.036284) can1 011#F80008C580000000
(1677782878.036445) can1 002#260A460000010000
(1677782878.036619) can1 003#3700810000010000
(1677782878.039420) can1 521#000600000001
(1677782878.059793) can1 521#000700000000
(1677782878.059906) can1 522#010D00000002
(1677782878.060019) can1 523#020DFFFFFFFC
(1677782878.060130) can1 524#070D00000000
(1677782878.061310) can1 011#F80008C580000000
(1677782878.079364) can1 521#000800000000
(1677782878.086283) can1 011#F80008C580000000
(1677782878.099372) can1 521#000900000000
(1677782878.111285) can1 011#F80008C580000000
(1677782878.119814) can1 521#000A00000000
(1677782878.119926) can1 522#010EFFFFFFF3
(1677782878.120037) can1 523#020EFFFFFFF0
(1677782878.120147) can1 524#070E00000000
(1677782878.136305) can1 011#F80008C580000000
(1677782878.136506) can1 002#260A460000010000
(1677782878.136751) can1 003#3700810000010000
(1677782878.139383) can1 521#000B00000000
(1677782878.159468) can1 521#000C00000000
(1677782878.161281) can1 011#F80008C580000000
(1677782878.179839) can1 521#000D00000000
(1677782878.179952) can1 522#010F00000006
(1677782878.180063) can1 523#020FFFFFFFFC
(1677782878.180173) can1 524#070F00000000
(1677782878.186281) can1 011#F80008C580000000
(1677782878.199411) can1 521#000E00000000
(1677782878.211282) can1 011#F80008C580000000
(1677782878.219419) can1 521#000F00000000
(1677782878.236280) can1 011#F80008C580000000
(1677782878.236440) can1 002#260A460000010000
(1677782878.236616) can1 003#3700810000010000
(1677782878.239884) can1 521#000000000000
(1677782878.239997) can1 522#0100FFFFFFF4
(1677782878.240107) can1 523#020000000009
(1677782878.240218) can1 524#070000000000
(1677782878.259433) can1 521#000100000001
(1677782878.261286) can1 011#F80008C580000000
(1677782878.279433) can1 521#000200000000
(1677782878.286314) can1 011#F80008C580000000
(1677782878.299884) can1 521#000300000001
(1677782878.299998) can1 522#010100000009
(1677782878.300110) can1 523#0201FFFFFFF8
(1677782878.300221) can1 524#070100000000
(1677782878.311281) can1 011#F80008C580000000
(1677782878.319484) can1 521#000400000001
(1677782878.336282) can1 011#F80008C580000000
(1677782878.336442) can1 002#260A460000010000
(1677782878.336616) can1 003#3700810000010000
(1677782878.339546) can1 521#000500000001
(1677782878.359935) can1 521#000600000000
(1677782878.360049) can1 522#010200000000
(1677782878.360160) can1 523#020200000001
(1677782878.360272) can1 524#070200000000
(1677782878.361296) can1 011#F80008C580000000
(1677782878.379484) can1 521#000700000000
(1677782878.386272) can1 011#F80008C580000000
(1677782878.399486) can1 521#000800000000
(1677782878.411275) can1 011#F80008C580000000
(1677782878.419933) can1 521#000900000000
(1677782878.420050) can1 522#010300000005
(1677782878.420161) can1 523#02030000000C
(1677782878.420271) can1 524#070300000000
(1677782878.436279) can1 011#F80008C580000000
(1677782878.436440) can1 002#260A460000010000
(1677782878.436615) can1 003#3700810000010000
(1677782878.439495) can1 521#000A00000001
(1677782878.459591) can1 521#000B00000001
(1677782878.461286) can1 011#F80008C580000000
(1677782878.479958) can1 521#000C00000000
(1677782878.480071) can1 522#0104FFFFFFFA
(1677782878.480182) can1 523#020400000005
(1677782878.480292) can1 524#070400000000
(1677782878.486313) can1 011#F80008C580000000
(1677782878.499532) can1 521#000D00000000
(1677782878.511278) can1 011#F80008C580000000
(1677782878.519582) can1 521#000E00000000
(1677782878.536278) can1 011#F80008C580000000
(1677782878.536439) can1 002#260A460000010000
(1677782878.536615) can1 003#3700810000010000
(1677782878.539979) can1 521#000F00000000
(1677782878.540094) can1 522#0105FFFFFFFB
(1677782878.540206) can1 523#0205FFFFFFF7
(1677782878.540316) can1 524#070500000000
(1677782878.559648) can1 521#0000FFFFFFFF
(1677782878.561274) can1 011#F80008C580000000
(1677782878.579557) can1 521#000100000000
(1677782878.586278) can1 011#F80008C580000000
(1677782878.600023) can1 521#000200000000
(1677782878.600136) can1 522#01060000000A
(1677782878.600250) can1 523#0206FFFFFFE4
(1677782878.600360) can1 524#070600000000
(1677782878.611306) can1 011#F80008C580000000
(1677782878.619572) can1 521#000300000000
(1677782878.636277) can1 011#F80008C580000000
(1677782878.636440) can1 002#260A460000010000
(1677782878.636610) can1 003#3700810000010000
(1677782878.639575) can1 521#0004FFFFFFFF
(1677782878.660044) can1 521#000500000000
(1677782878.660157) can1 522#0107FFFFFFF0
(1677782878.660268) can1 523#020700000002
(1677782878.660378) can1 524#070700000000
(1677782878.661302) can1 011#F80008C580000000
(1677782878.679661) can1 521#000600000000
(1677782878.686309) can1 011#F80008C580000000
(1677782878.699684) can1 521#000700000000
(1677782878.711277) can1 011#F80008C580000000
(1677782878.720107) can1 521#000800000000
(1677782878.720220) can1 522#010800000010
(1677782878.720333) can1 523#020800000010
(1677782878.720443) can1 524#070800000000
(1677782878.736274) can1 011#F80008C580000000
(1677782878.736435) can1 002#260A460000010000
(1677782878.736610) can1 003#3700810000010000
(1677782878.739617) can1 521#000900000000
(1677782878.759712) can1 521#000A00000000
(1677782878.761269) can1 011#F80008C580000000
(1677782878.780045) can1 521#000B00000001
(1677782878.780153) can1 522#0109FFFFFFFF
(1677782878.780276) can1 523#020900000004
(1677782878.780413) can1 524#070900000000
(1677782878.786232) can1 011#F80008C580000000
(1677782878.799594) can1 521#000C00000001
(1677782878.811228) can1 011#F80008C580000000
(1677782878.819609) can1 521#000D00000000
(1677782878.836231) can1 011#F80008C580000000
(1677782878.836383) can1 002#260A460000010000
(1677782878.836496) can1 003#3700810000010000
(1677782878.840102) can1 521#000E00000000
(1677782878.840215) can1 522#010AFFFFFFF6
(1677782878.840329) can1 523#020AFFFFFFEC
(1677782878.840439) can1 524#070A00000000
(1677782878.859667) can1 521#000F00000000
(1677782878.861277) can1 011#F80008C580000000
(1677782878.879808) can1 521#000000000000
(1677782878.886307) can1 011#F80008C580000000
(1677782878.900123) can1 521#000100000000
(1677782878.900240) can1 522#010BFFFFFFEF
(1677782878.900353) can1 523#020BFFFFFFFC
(1677782878.900464) can1 524#070B00000000
(1677782878.911271) can1 011#F80008C580000000
(1677782878.919796) can1 521#000200000000
(1677782878.936273) can1 011#F80008C580000000
(1677782878.936433) can1 002#260A460000010000
(1677782878.936609) can1 003#3700810000010000
(1677782878.939776) can1 521#000300000001
(1677782878.960160) can1 521#000400000000
(1677782878.960274) can1 522#010CFFFFFFFF
(1677782878.960384) can1 523#020CFFFFFFFC
(1677782878.960495) can1 524#070C00000000
(1677782878.961287) can1 011#F80008C580000000
(1677782878.979791) can1 521#000500000001
(1677782878.986271) can1 011#F80008C580000000
(1677782878.999793) can1 521#000600000000
(1677782879.011303) can1 011#F80008C580000000
(1677782879.020181) can1 521#000700000000
(1677782879.020294) can1 522#010D00000010
(1677782879.020407) can1 523#020DFFFFFFF3
(1677782879.020517) can1 524#070D00000000
(1677782879.036272) can1 011#F80008C580000000
(1677782879.036433) can1 002#260A460000010000
(1677782879.036608) can1 003#3700810000010000
(1677782879.039726) can1 521#000800000000
(1677782879.059825) can1 521#000900000001
(1677782879.061276) can1 011#F80008C580000000
(1677782879.080181) can1 521#000A00000000
(1677782879.080295) can1 522#010E00000004
(1677782879.080408) can1 523#020E0000000A
(1677782879.080519) can1 524#070E00000000
(1677782879.086312) can1 011#F80008C580000000
(1677782879.099839) can1 521#000B00000001
(1677782879.111271) can1 011#F80008C580000000
(1677782879.119796) can1 521#000C00000000
(1677782879.136270) can1 011#F80008C580000000
(1677782879.136431) can1 002#260A460000010000
(1677782879.136604) can1 003#3700810000010000
(1677782879.140217) can1 521#000D00000001
(1677782879.140331) can1 522#010F00000004
(1677782879.140442) can1 523#020FFFFFFFFE
(1677782879.140553) can1 524#070F00000000
(1677782879.159799) can1 521#000E00000000
(1677782879.161265) can1 011#F80008C580000000
(1677782879.179868) can1 521#000F00000000
(1677782879.186267) can1 011#F80008C580000000
(1677782879.200247) can1 521#000000000000
(1677782879.200360) can1 522#010000000008
(1677782879.200473) can1 523#0200FFFFFFF4
(1677782879.200586) can1 524#070000000000
(1677782879.211301) can1 011#F80008C580000000
(1677782879.219804) can1 521#000100000000
(1677782879.236268) can1 011#F80008C580000000
(1677782879.236428) can1 002#260A460000010000
(1677782879.236602) can1 003#3700810000010000
(1677782879.239803) can1 521#000200000000
(1677782879.260275) can1 521#000300000000
(1677782879.260388) can1 522#0101FFFFFFFE
(1677782879.260499) can1 523#020100000008
(1677782879.260612) can1 524#070100000000
(1677782879.261291) can1 011#F80008C580000000
(1677782879.279936) can1 521#000400000000
(1677782879.286324) can1 011#F80008C580000000
(1677782879.299911) can1 521#000500000000
(1677782879.311268) can1 011#F80008C580000000
(1677782879.320330) can1 521#0006FFFFFFFF
(1677782879.320443) can1 522#010200000009
(1677782879.320554) can1 523#0202FFFFFFF7
(1677782879.320665) can1 524#070200000000
(1677782879.336269) can1 011#F80008C580000000
(1677782879.336429) can1 002#260A460000010000
(1677782879.336604) can1 003#3700810000010000
(1677782879.339865) can1 521#000700000000
(1677782879.359875) can1 521#000800000001
(1677782879.361263) can1 011#F80008C580000000
(1677782879.380317) can1 521#000900000000
(1677782879.380430) can1 522#0103FFFFFFF8
(1677782879.380541) can1 523#0203FFFFFFF8
(1677782879.380651) can1 524#070300000000
(1677782879.386266) can1 011#F80008C580000000
(1677782879.399876) can1 521#000A00000001
(1677782879.411272) can1 011#F80008C580000000
(1677782879.419956) can1 521#000B00000000
(1677782879.436266) can1 011#F80008C580000000
(1677782879.436428) can1 002#260A460000010000
(1677782879.436604) can1 003#3700810000010000
(1677782879.440380) can1 521#000C00000000
(1677782879.440493) can1 522#0104FFFFFFF8
(1677782879.440604) can1 523#02040000000D
(1677782879.440717) can1 524#070400000000
(1677782879.459977) can1 521#000D00000001
(1677782879.461271) can1 011#F80008C580000000
(1677782879.479935) can1 521#000E00000000
(1677782879.486324) can1 011#F80008C580000000
(1677782879.500357) can1 521#000F00000000
(1677782879.500471) can1 522#010500000009
(1677782879.500584) can1 523#0205FFFFFFFC
(1677782879.500694) can1 524#070500000000
(1677782879.511265) can1 011#F80008C580000000
(1677782879.519933) can1 521#000000000000
(1677782879.536265) can1 011#F80008C580000000
(1677782879.536425) can1 002#260A460000010000
(1677782879.536600) can1 003#3700810000010000
(1677782879.539923) can1 521#000100000000
(1677782879.560383) can1 521#000200000000
(1677782879.560496) can1 522#01060000000C
(1677782879.560607) can1 523#020600000000
(1677782879.560717) can1 524#070600000000
(1677782879.561294) can1 011#F80008C580000000
(1677782879.579934) can1 521#000300000000
(1677782879.586259) can1 011#F80008C580000000
(1677782879.599938) can1 521#000400000000
(1677782879.611282) can1 011#F80008C580000000
(1677782879.620403) can1 521#0005FFFFFFFF
(1677782879.620518) can1 522#0107FFFFFFFB
(1677782879.620629) can1 523#020700000000
(1677782879.620739) can1 524#070700000000
(1677782879.636259) can1 011#F80008C580000000
(1677782879.636419) can1 002#260A460000010000
(1677782879.636593) can1 003#3700810000010000
(1677782879.640027) can1 521#000600000000
(1677782879.659966) can1 521#000700000000
(1677782879.661262) can1 011#F80008C580000000
(1677782879.680481) can1 521#000800000000
(1677782879.680596) can1 522#0108FFFFFFF4
(1677782879.680707) can1 523#0208FFFFFFFA
(1677782879.680833) can1 524#070800000000
(1677782879.686265) can1 011#F80008C580000000
(1677782879.700066) can1 521#000900000000
(1677782879.711262) can1 011#F80008C580000000
(1677782879.720020) can1 521#000A00000001
(1677782879.736263) can1 011#F80008C580000000
(1677782879.736423) can1 002#260A460000010000
(1677782879.736598) can1 003#3700810000010000
(1677782879.740433) can1 521#000B00000000
(1677782879.740545) can1 522#01090000000E
(1677782879.740657) can1 523#0209FFFFFFF4
(1677782879.740767) can1 524#070900000000
(1677782879.760022) can1 521#000CFFFFFFFF
(1677782879.761259) can1 011#F80008C580000000
(1677782879.780019) can1 521#000D00000002
(1677782879.786261) can1 011#F80008C580000000
(1677782879.800471) can1 521#000E00000002
(1677782879.800583) can1 522#010A00000001
(1677782879.800698) can1 523#020AFFFFFFF2
(1677782879.800812) can1 524#070A00000000
(1677782879.811292) can1 011#F80008C580000000
(1677782879.820029) can1 521#000F00000000
(1677782879.836262) can1 011#F80008C580000000
(1677782879.836425) can1 002#260A460000010000
(1677782879.836600) can1 003#3700810000010000
(1677782879.840027) can1 521#000000000000
(1677782879.860489) can1 521#000100000001
(1677782879.860605) can1 522#010B00000001
(1677782879.860718) can1 523#020B00000001
(1677782879.860859) can1 524#070B00000000
(1677782879.861284) can1 011#F80008C580000000
(1677782879.880109) can1 521#000200000000
(1677782879.886380) can1 011#F80008C580000000
(1677782879.900144) can1 521#000300000000
(1677782879.911260) can1 011#F80008C580000000
(1677782879.920544) can1 521#000400000000
(1677782879.920657) can1 522#010CFFFFFFF6
(1677782879.920768) can1 523#020CFFFFFFF8
(1677782879.920903) can1 524#070C00000000
(1677782879.936262) can1 011#F80008C580000000
(1677782879.936422) can1 002#260A460000010000
(1677782879.936598) can1 003#3700810000010000
(1677782879.940078) can1 521#000500000000
(1677782879.960160) can1 521#000600000000
(1677782879.961257) can1 011#F80008C580000000
(1677782879.980539) can1 521#000700000000
(1677782879.980654) can1 522#010D00000002
(1677782879.980765) can1 523#020D00000009
(1677782879.980914) can1 524#070D00000000
(1677782879.986259) can1 011#F80008C580000000
(1677782880.000207) can1 521#000800000000
(1677782880.011267) can1 011#F80008C580000000
(1677782880.020190) can1 521#000900000000
(1677782880.036258) can1 011#F80008C580000000
(1677782880.036418) can1 002#260A460000010000
(1677782880.036679) can1 003#3700810000010000
(1677782880.040608) can1 521#000A00000000
(1677782880.040721) can1 522#010EFFFFFFFA
(1677782880.040851) can1 523#020EFFFFFFFC
(1677782880.041050) can1 524#070E00000000
(1677782880.060124) can1 521#000B00000000
(1677782880.061257) can1 011#F80008C580000000
(1677782880.080258) can1 521#000C00000000
(1677782880.086379) can1 011#F80008C580000000
(1677782880.100597) can1 521#000D00000001
(1677782880.100712) can1 522#010FFFFFFFF3
(1677782880.100869) can1 523#020F00000001
(1677782880.101118) can1 524#070F00000000
(1677782880.111258) can1 011#F80008C580000000
(1677782880.120245) can1 521#000E00000000
(1677782880.136256) can1 011#F80008C580000000
(1677782880.136419) can1 002#260A460000010000
(1677782880.136593) can1 003#3700810000010000
(1677782880.140235) can1 521#000F00000000
(1677782880.160609) can1 521#0000FFFFFFFF
(1677782880.160724) can1 522#010000000004
(1677782880.160852) can1 523#020000000011
(1677782880.161054) can1 524#070000000000
(1677782880.161312) can1 011#F80008C580000000
(1677782880.180174) can1 521#000100000000
(1677782880.186254) can1 011#F80008C580000000
(1677782880.200175) can1 521#000200000000
(1677782880.211282) can1 011#F80008C580000000
(1677782880.220638) can1 521#000300000000
(1677782880.220751) can1 522#010100000002
(1677782880.220901) can1 523#0201FFFFFFF4
(1677782880.221032) can1 524#070100000000
(1677782880.236255) can1 011#F80008C580000000
(1677782880.236415) can1 002#260A460000010000
(1677782880.236592) can1 003#3700810000010000
(1677782880.240256) can1 521#000400000000
(1677782880.260280) can1 521#000500000000
(1677782880.261259) can1 011#F80008C580000000
(1677782880.280696) can1 521#000600000001
(1677782880.280812) can1 522#0102FFFFFFFE
(1677782880.280941) can1 523#020200000004
(1677782880.281053) can1 524#070200000000
(1677782880.286251) can1 011#F80008C580000000
(1677782880.300222) can1 521#000700000000
(1677782880.311254) can1 011#F80008C580000000
(1677782880.320245) can1 521#000800000001
(1677782880.336255) can1 011#F80008C580000000
(1677782880.336416) can1 002#260A460000010000
(1677782880.336594) can1 003#3700810000010000
(1677782880.340682) can1 521#000900000001
(1677782880.340810) can1 522#0103FFFFFFF4
(1677782880.340936) can1 523#020300000002
(1677782880.341052) can1 524#070300000000
(1677782880.360246) can1 521#000A00000000
(1677782880.361256) can1 011#F80008C580000000
(1677782880.380249) can1 521#000B00000001
(1677782880.386253) can1 011#F80008C580000000
(1677782880.400802) can1 521#000CFFFFFFFF
(1677782880.401094) can1 523#020400000008
(1677782880.401180) can1 522#010400000012
(1677782880.411291) can1 011#F80008C580000000
(1677782880.420267) can1 521#000D00000000
(1677782880.436253) can1 011#F80008C580000000
(1677782880.436414) can1 002#260A460000010000
(1677782880.436590) can1 003#3700810000010000
(1677782880.440331) can1 521#000E00000000
(1677782880.460721) can1 521#000F00000000
(1677782880.460850) can1 522#0105FFFFFFFB
(1677782880.461001) can1 523#020500000000
(1677782880.461118) can1 524#070500000000
(1677782880.461234) can1 011#F80008C580000000
(1677782880.480383) can1 521#0000FFFFFFFF
(1677782880.486380) can1 011#F80008C580000000
(1677782880.500304) can1 521#000100000000
(1677782880.511249) can1 011#F80008C580000000
(1677782880.520768) can1 521#0002FFFFFFFF
(1677782880.520902) can1 522#010600000000
(1677782880.521029) can1 523#0206FFFFFFF8
(1677782880.521142) can1 524#070600000000
(1677782880.536247) can1 011#F80008C580000000
(1677782880.536439) can1 002#260A460000010000
(1677782880.536639) can1 003#3700810000010000
(1677782880.540391) can1 521#000300000000
(1677782880.560322) can1 521#000400000000
(1677782880.561257) can1 011#F80008C580000000
(1677782880.580762) can1 521#000500000000
(1677782880.580894) can1 522#010700000024
(1677782880.581020) can1 523#0207FFFFFFE7
(1677782880.581134) can1 524#070700000000
(1677782880.586252) can1 011#F80008C580000000
(1677782880.600329) can1 521#000600000000
(1677782880.611256) can1 011#F80008C580000000
(1677782880.620422) can1 521#000700000001
(1677782880.636253) can1 011#F80008C580000000
(1677782880.636415) can1 002#260A460000010000
(1677782880.636592) can1 003#3700810000010000
(1677782880.640796) can1 521#000800000001
(1677782880.640912) can1 522#010800000009
(1677782880.641041) can1 523#020800000001
(1677782880.641152) can1 524#070800000000
(1677782880.660398) can1 521#000900000000
(1677782880.661215) can1 011#F80008C580000000
(1677782880.680396) can1 521#000A00000000
(1677782880.686236) can1 011#F80008C580000000
(1677782880.700838) can1 521#000B00000000
(1677782880.701104) can1 522#010900000002
(1677782880.701280) can1 523#020900000008
(1677782880.711251) can1 011#F80008C580000000
(1677782880.720470) can1 521#000C00000000
(1677782880.736251) can1 011#F80008C580000000
(1677782880.736414) can1 002#260A460000010000
(1677782880.736590) can1 003#3700810000010000
(1677782880.740468) can1 521#000D00000000
(1677782880.760850) can1 521#000E00000001
(1677782880.761054) can1 522#010AFFFFFFFA
(1677782880.761171) can1 523#020AFFFFFFEF
(1677782880.761250) can1 524#070A00000000
(1677782880.761492) can1 011#F80008C580000000
(1677782880.780405) can1 521#000F00000000
(1677782880.786252) can1 011#F80008C580000000
(1677782880.800556) can1 521#000000000000
(1677782880.811285) can1 011#F80008C580000000
(1677782880.820900) can1 521#000100000000
(1677782880.821033) can1 522#010B0000000A
(1677782880.821147) can1 523#020B00000001
(1677782880.821258) can1 524#070B00000000
(1677782880.836250) can1 011#F80008C580000000
(1677782880.836410) can1 002#260A460000010000
(1677782880.836583) can1 003#3700810000010000
(1677782880.840420) can1 521#000200000000
(1677782880.860426) can1 521#0003FFFFFFFF
(1677782880.861253) can1 011#F80008C580000000
(1677782880.880902) can1 521#000400000001
(1677782880.881048) can1 522#010CFFFFFFEF
(1677782880.881166) can1 523#020CFFFFFFF4
(1677782880.881279) can1 524#070C00000000
(1677782880.886250) can1 011#F80008C580000000
(1677782880.900521) can1 521#000500000001
(1677782880.911252) can1 011#F80008C580000000
(1677782880.920451) can1 521#000600000000
(1677782880.936250) can1 011#F80008C580000000
(1677782880.936410) can1 002#260A460000010000
(1677782880.936586) can1 003#3700810000010000
(1677782880.940912) can1 521#000700000000
(1677782880.941043) can1 522#010D00000008
(1677782880.941154) can1 523#020DFFFFFFEE
(1677782880.941266) can1 524#070D00000000
(1677782880.960466) can1 521#000800000000
(1677782880.961250) can1 011#F80008C580000000
(1677782880.980555) can1 521#000900000000
(1677782880.986249) can1 011#F80008C580000000
(1677782881.001004) can1 521#000A00000000
(1677782881.001260) can1 523#020E00000002
(1677782881.001357) can1 522#010E00000004
(1677782881.011283) can1 011#F80008C580000000
(1677782881.020532) can1 521#000B00000001
(1677782881.036251) can1 011#F80008C580000000
(1677782881.036463) can1 002#260A460000010000
(1677782881.036627) can1 003#3700810000010000
(1677782881.040569) can1 521#000C00000000
(1677782881.060946) can1 521#000D00000000
(1677782881.061057) can1 522#010F0000000E
(1677782881.061168) can1 523#020F00000004
(1677782881.061285) can1 011#F80008C580000000
(1677782881.061469) can1 524#070F00000000
(1677782881.080508) can1 521#000E00000000
(1677782881.086243) can1 011#F80008C580000000
(1677782881.100515) can1 521#000F00000000
(1677782881.111247) can1 011#F80008C580000000
(1677782881.120983) can1 521#000000000000
(1677782881.121098) can1 522#0100FFFFFFFA
(1677782881.121209) can1 523#020000000004
(1677782881.121318) can1 524#070000000000
(1677782881.136246) can1 011#F80008C580000000
(1677782881.136403) can1 002#260A460000010000
(1677782881.136583) can1 003#3700810000010000
(1677782881.140534) can1 521#000100000001
(1677782881.160617) can1 521#000200000000
(1677782881.161250) can1 011#F80008C580000000
(1677782881.180993) can1 521#000300000000
(1677782881.181106) can1 522#010100000000
(1677782881.181217) can1 523#020100000000
(1677782881.181326) can1 524#070100000000
(1677782881.186244) can1 011#F80008C580000000
(1677782881.200552) can1 521#000400000000
(1677782881.211238) can1 011#F80008C580000000
(1677782881.220642) can1 521#000500000001
(1677782881.236238) can1 011#F80008C580000000
(1677782881.236395) can1 002#260A460000010000
(1677782881.236563) can1 003#3700810000010000
(1677782881.241026) can1 521#000600000000
(1677782881.241138) can1 522#0102FFFFFFFB
(1677782881.241248) can1 523#020200000006
(1677782881.241358) can1 524#070200000000
(1677782881.260653) can1 521#000700000000
(1677782881.261253) can1 011#F80008C580000000
(1677782881.280582) can1 521#000800000000
(1677782881.286247) can1 011#F80008C580000000
(1677782881.301052) can1 521#0009FFFFFFFF
(1677782881.301229) can1 522#0103FFFFFFF7
(1677782881.301356) can1 523#02030000000C
(1677782881.301525) can1 524#070300000000
(1677782881.311249) can1 011#F80008C580000000
(1677782881.320674) can1 521#000A00000000
(1677782881.336248) can1 011#F80008C580000000
(1677782881.336404) can1 002#260A460000010000
(1677782881.336580) can1 003#3700810000010000
(1677782881.340684) can1 521#000B00000000
(1677782881.361065) can1 521#000CFFFFFFFF
(1677782881.361178) can1 522#010400000005
(1677782881.361294) can1 011#F80008C580000000
(1677782881.361553) can1 523#0204FFFFFFF6
(1677782881.361728) can1 524#070400000000
(1677782881.380700) can1 521#000D00000000
(1677782881.386244) can1 011#F80008C580000000
(1677782881.400700) can1 521#000E00000000
(1677782881.411243) can1 011#F80008C580000000
(1677782881.421072) can1 521#000F00000000
(1677782881.421190) can1 522#01050000000A
(1677782881.421303) can1 523#020500000005
(1677782881.421416) can1 524#070500000000
(1677782881.436244) can1 011#F80008C580000000
(1677782881.436405) can1 002#260A460000010000
(1677782881.436579) can1 003#3700810000010000
(1677782881.440640) can1 521#000000000000
(1677782881.460647) can1 521#000100000000
(1677782881.461270) can1 011#F80008C580000000
(1677782881.481104) can1 521#000200000000
(1677782881.481219) can1 522#010600000000
(1677782881.481333) can1 523#0206FFFFFFEF
(1677782881.481445) can1 524#070600000000
(1677782881.486250) can1 011#F80008C580000000
(1677782881.500665) can1 521#000300000000
(1677782881.511237) can1 011#F80008C580000000
(1677782881.520669) can1 521#000400000000
(1677782881.536236) can1 011#F80008C580000000
(1677782881.536397) can1 002#260A460000010000
(1677782881.536571) can1 003#3700810000010000
(1677782881.541123) can1 521#000500000001
(1677782881.541238) can1 522#0107FFFFFFEE
(1677782881.541351) can1 523#0207FFFFFFF3
(1677782881.541463) can1 524#070700000000
(1677782881.560679) can1 521#000600000000
(1677782881.561271) can1 011#F80008C580000000
(1677782881.580769) can1 521#000700000000
(1677782881.586243) can1 011#F80008C580000000
(1677782881.601186) can1 521#000800000000
(1677782881.601363) can1 523#0208FFFFFFF4
(1677782881.601465) can1 522#010800000006
(1677782881.601588) can1 524#070800000000
(1677782881.611244) can1 011#F80008C580000000
(1677782881.620700) can1 521#000900000000
(1677782881.636240) can1 011#F80008C580000000
(1677782881.636400) can1 002#260A460000010000
(1677782881.636574) can1 003#3700810000010000
(1677782881.640708) can1 521#000A00000001
(1677782881.661161) can1 521#000B00000001
(1677782881.661275) can1 011#F80008C580000000
(1677782881.661459) can1 522#0109FFFFFFF8
(1677782881.661716) can1 523#02090000001E
(1677782881.661791) can1 524#070900000000
(1677782881.680726) can1 521#000C00000000
(1677782881.686238) can1 011#F80008C580000000
(1677782881.700738) can1 521#000D00000000
(1677782881.711239) can1 011#F80008C580000000
(1677782881.721190) can1 521#000E00000000
(1677782881.721306) can1 522#010A00000010
(1677782881.721417) can1 523#020AFFFFFFEF
(1677782881.721527) can1 524#070A00000000
(1677782881.736238) can1 011#F80008C580000000
(1677782881.736399) can1 002#260A460000010000
(1677782881.736575) can1 003#3700810000010000
(1677782881.740756) can1 521#000FFFFFFFFF
(1677782881.760761) can1 521#000000000000
(1677782881.761241) can1 011#F80008C580000000
(1677782881.781209) can1 521#000100000001
(1677782881.781322) can1 522#010BFFFFFFE4
(1677782881.781432) can1 523#020B00000000
(1677782881.781545) can1 524#070B00000000
(1677782881.786256) can1 011#F80008C580000000
(1677782881.800795) can1 521#000200000000
(1677782881.811231) can1 011#F80008C580000000
(1677782881.820878) can1 521#000300000000
(1677782881.836232) can1 011#F80008C580000000
(1677782881.836392) can1 002#260A460000010000
(1677782881.836567) can1 003#3700810000010000
(1677782881.841238) can1 521#000400000000
(1677782881.841350) can1 522#010CFFFFFFF8
(1677782881.841462) can1 523#020CFFFFFFEE
(1677782881.841572) can1 524#070C00000000
(1677782881.860808) can1 521#000500000000
(1677782881.861241) can1 011#F80008C580000000
(1677782881.880808) can1 521#000600000000
(1677782881.886236) can1 011#F80008C580000000
(1677782881.901300) can1 521#000700000001
(1677782881.901610) can1 523#020D00000009
(1677782881.901686) can1 522#010D00000002
(1677782881.911236) can1 011#F80008C580000000
(1677782881.920909) can1 521#000800000000
(1677782881.936237) can1 011#F80008C580000000
(1677782881.936399) can1 002#260A460000010000
(1677782881.936573) can1 003#3700810000010000
(1677782881.940910) can1 521#000900000000
(1677782881.961236) can1 011#F80008C580000000
(1677782881.961393) can1 521#000A00000000
(1677782881.961570) can1 522#010EFFFFFFEF
(1677782881.961671) can1 523#020E00000011
(1677782881.961805) can1 524#070E00000000
(1677782881.980935) can1 521#000B00000000
(1677782881.986233) can1 011#F80008C580000000
(1677782882.000982) can1 521#000C00000000
(1677782882.011237) can1 011#F80008C580000000
(1677782882.021305) can1 521#000D00000000
(1677782882.021421) can1 522#010F0000000C
(1677782882.021535) can1 523#020FFFFFFFF7
(1677782882.021646) can1 524#070F00000000
(1677782882.036236) can1 011#F80008C580000000
(1677782882.036397) can1 002#260A460000010000
(1677782882.036571) can1 003#3700810000010000
(1677782882.040877) can1 521#000E00000000
(1677782882.060887) can1 521#000F00000001
(1677782882.061238) can1 011#F80008C580000000
(1677782882.081322) can1 521#000000000001
(1677782882.081434) can1 522#0100FFFFFFF6
(1677782882.081546) can1 523#020000000002
(1677782882.081656) can1 524#070000000000
(1677782882.086256) can1 011#F80008C580000000
(1677782882.100983) can1 521#000100000000
(1677782882.111228) can1 011#F80008C580000000
(1677782882.120998) can1 521#000200000000
(1677782882.136230) can1 011#F80008C580000000
(1677782882.136390) can1 002#260A460000010000
(1677782882.136564) can1 003#3700810000010000
(1677782882.141369) can1 521#0003FFFFFFFF
(1677782882.141484) can1 522#0101FFFFFFF3
(1677782882.141595) can1 523#0201FFFFFFF3
(1677782882.141706) can1 524#070100000000
(1677782882.160910) can1 521#000400000001
(1677782882.161237) can1 011#F80008C580000000
(1677782882.180909) can1 521#000500000000
(1677782882.186230) can1 011#F80008C580000000
(1677782882.201404) can1 521#000600000000
(1677782882.201578) can1 523#0202FFFFFFFF
(1677782882.201647) can1 522#010200000001
(1677782882.201760) can1 524#070200000000
(1677782882.211232) can1 011#F80008C580000000
(1677782882.220943) can1 521#000700000001
(1677782882.236231) can1 011#F80008C580000000
(1677782882.236390) can1 002#260A460000010000
(1677782882.236566) can1 003#3700810000010000
(1677782882.241029) can1 521#000800000000
(1677782882.261229) can1 011#F80008C580000000
(1677782882.261389) can1 521#000900000000
(1677782882.261562) can1 522#0103FFFFFFF6
(1677782882.261740) can1 523#0203FFFFFFF6
(1677782882.261851) can1 524#070300000000
(1677782882.281043) can1 521#000A00000000
(1677782882.286229) can1 011#F80008C580000000
(1677782882.301035) can1 521#000B00000000
(1677782882.311229) can1 011#F80008C580000000
(1677782882.321426) can1 521#000C00000002
(1677782882.321538) can1 522#0104FFFFFFF7
(1677782882.321653) can1 523#020400000000
(1677782882.321764) can1 524#070400000000
(1677782882.336226) can1 011#F80008C580000000
(1677782882.336386) can1 002#260A460000010000
(1677782882.336559) can1 003#3700810000010000
(1677782882.340990) can1 521#000D00000001
(1677782882.361064) can1 521#000E00000000
(1677782882.361176) can1 011#F80008C580000000
(1677782882.381448) can1 521#000F00000000
(1677782882.381561) can1 522#0105FFFFFFFA
(1677782882.381671) can1 523#020500000000
(1677782882.381781) can1 524#070500000000
(1677782882.386248) can1 011#F80008C580000000
(1677782882.401034) can1 521#000000000000
(1677782882.411223) can1 011#F80008C580000000
(1677782882.421081) can1 521#000100000000
(1677782882.436225) can1 011#F80008C580000000
(1677782882.436385) can1 002#260A460000010000
(1677782882.436559) can1 003#3700810000010000
(1677782882.441453) can1 521#000200000000
(1677782882.441568) can1 522#0106FFFFFFEF
(1677782882.441678) can1 523#0206FFFFFFF7
(1677782882.441802) can1 524#070600000000
(1677782882.461032) can1 521#000300000000
(1677782882.461224) can1 011#F80008C580000000
(1677782882.481105) can1 521#000400000000
(1677782882.486228) can1 011#F80008C580000000
(1677782882.501519) can1 521#000500000000
(1677782882.501633) can1 522#010700000004
(1677782882.501744) can1 523#0207FFFFFFFA
(1677782882.501854) can1 524#070700000000
(1677782882.511227) can1 011#F80008C580000000
(1677782882.521122) can1 521#000600000000
(1677782882.536227) can1 011#F80008C580000000
(1677782882.536387) can1 002#260A460000010000
(1677782882.536561) can1 003#3700810000010000
(1677782882.541128) can1 521#000700000001
(1677782882.561226) can1 011#F80008C580000000
(1677782882.561572) can1 521#000800000000
(1677782882.561746) can1 523#0208FFFFFFFE
(1677782882.561845) can1 522#0108FFFFFFE7
(1677782882.561971) can1 524#070800000000
(1677782882.581061) can1 521#000900000000
(1677782882.586226) can1 011#F80008C580000000
(1677782882.601221) can1 521#000A00000001
(1677782882.611227) can1 011#F80008C580000000
(1677782882.621533) can1 521#000B00000000
(1677782882.621646) can1 522#0109FFFFFFFA
(1677782882.621761) can1 523#0209FFFFFFF8
(1677782882.621871) can1 524#070900000000
(1677782882.636225) can1 011#F80008C580000000
(1677782882.636385) can1 002#260A460000010000
(1677782882.636561) can1 003#3700810000010000
(1677782882.641088) can1 521#000C00000000
(1677782882.661173) can1 521#000D00000000
(1677782882.661318) can1 011#F80008C580000000
(1677782882.681543) can1 521#000E00000001
(1677782882.681655) can1 522#010A00000005
(1677782882.681766) can1 523#020AFFFFFFF2
(1677782882.681893) can1 524#070A00000000
(1677782882.686248) can1 011#F80008C580000000
(1677782882.701155) can1 521#000F00000001
(1677782882.711227) can1 011#F80008C580000000
(1677782882.721200) can1 521#000000000001
(1677782882.736227) can1 011#F80008C580000000
(1677782882.736387) can1 002#260A460000010000
(1677782882.736561) can1 003#3700810000010000
(1677782882.741579) can1 521#000100000000
(1677782882.741694) can1 522#010BFFFFFFF0
(1677782882.741806) can1 523#020BFFFFFFFB
(1677782882.741916) can1 524#070B00000000
(1677782882.761138) can1 521#000200000000
(1677782882.761257) can1 011#F80008C580000000
(1677782882.781142) can1 521#000300000000
(1677782882.786224) can1 011#F80008C580000000
(1677782882.801600) can1 521#000400000000
(1677782882.801714) can1 522#010CFFFFFFFE
(1677782882.801859) can1 523#020CFFFFFFF3
(1677782882.801987) can1 524#070C00000000
(1677782882.811223) can1 011#F80008C580000000
(1677782882.821235) can1 521#000500000001
(1677782882.836226) can1 011#F80008C580000000
(1677782882.836386) can1 002#260A460000010000
(1677782882.836560) can1 003#3700810000010000
(1677782882.841166) can1 521#000600000001
(1677782882.861224) can1 011#F80008C580000000
(1677782882.861686) can1 521#000700000000
(1677782882.861799) can1 523#020DFFFFFFF3
(1677782882.861875) can1 522#010D00000012
(1677782882.861987) can1 524#070D00000000
(1677782882.881187) can1 521#000800000000
(1677782882.886222) can1 011#F80008C580000000
(1677782882.901278) can1 521#000900000001
(1677782882.911222) can1 011#F80008C580000000
(1677782882.921654) can1 521#000A00000000
(1677782882.921766) can1 522#010E00000002
(1677782882.921899) can1 523#020EFFFFFFF8
(1677782882.922026) can1 524#070E00000000
(1677782882.936222) can1 011#F80008C580000000
(1677782882.936381) can1 002#260A460000010000
(1677782882.936555) can1 003#3700810000010000
(1677782882.941205) can1 521#000B00000000
(1677782882.961220) can1 011#F80008C580000000
(1677782882.961380) can1 521#000C00000000
(1677782882.981657) can1 521#000D00000000
(1677782882.981773) can1 522#010F00000001
(1677782882.981884) can1 523#020FFFFFFFFE
(1677782882.981994) can1 524#070F00000000
(1677782882.986244) can1 011#F80008C580000000
(1677782883.001267) can1 521#000E00000001
(1677782883.011222) can1 011#F80008C580000000
(1677782883.021312) can1 521#000F00000000
