(1676387611.771560) vcan0 124#R8
(1676387611.771868) vcan0 0DF#R8
(1676387611.790854) vcan0 7A0#R8
(1676387611.791096) vcan0 124#R8
(1676387611.811177) vcan0 124#R2
(1676387611.815833) vcan0 220#R2
(1676387611.831539) vcan0 124#R
(1676387611.831618) vcan0 240#R
(1676387611.831676) vcan0 15F#R
(1676387611.831778) vcan0 080AFA17#
(1676387611.840848) vcan0 057D0BA0#
(1676387611.851190) vcan0 124#R8
(1676387611.865880) vcan0 220#R8
(1676387611.871115) vcan0 124#R8
(1676387611.890846) vcan0 220#R8
(1676387611.891534) vcan0 124#R
(1676387611.891723) vcan0 10124CE7#
(1676387611.891966) vcan0 261#2492052492052492
(1676387611.911112) vcan0 124#R
(1676387611.915877) vcan0 220#R
(1676387611.931233) vcan0 124#R8
(1676387611.940862) vcan0 220#R8
(1676387611.951563) vcan0 124#R8
(1676387611.951642) vcan0 240#R8
(1676387611.951743) vcan0 124#2492052492052492
(1676387611.951941) vcan0 261#92495F2492052492
(1676387611.965796) vcan0 0A0#92495F2492052492
(1676387611.971184) vcan0 124#R8
(1676387611.990794) vcan0 220#R8
(1676387611.991204) vcan0 124#R8
(1676387612.011554) vcan0 124#R8
(1676387612.011616) vcan0 240#R8
(1676387612.012027) vcan0 261#2492EE2492052492
(1676387612.015793) vcan0 0A0#2492EE2492052492
(1676387612.031216) vcan0 124#R8
(1676387612.040792) vcan0 220#R8
(1676387612.051113) vcan0 124#R
(1676387612.065791) vcan0 220#R
(1676387612.071562) vcan0 124#R
(1676387612.071834) vcan0 124#
(1676387612.072016) vcan0 261#9249662492052492
(1676387612.090791) vcan0 0A0#9249662492052492
(1676387612.091231) vcan0 124#R8
(1676387612.111139) vcan0 124#R8
(1676387612.115789) vcan0 220#R8
(1676387612.131643) vcan0 124#R2
(1676387612.131705) vcan0 240#R2
(1676387612.131762) vcan0 25F#R2
(1676387612.131915) vcan0 1025F4B7#9249
(1676387612.140788) vcan0 12FA5BA0#9249
(1676387612.151232) vcan0 124#R
(1676387612.165788) vcan0 220#R
(1676387612.171272) vcan0 124#R8
(1676387612.190788) vcan0 220#R8
(1676387612.191637) vcan0 124#R8
(1676387612.191699) vcan0 240#R8
(1676387612.192111) vcan0 261#
(1676387612.211184) vcan0 124#R7
(1676387612.211285) vcan0 124#R7
(1676387612.211396) vcan0 124#R7
(1676387612.211500) vcan0 124#R7
(1676387612.211612) vcan0 124#R7
(1676387612.211716) vcan0 124#R7
(1676387612.211827) vcan0 124#R7
(1676387612.211935) vcan0 124#R7
(1676387612.212044) vcan0 124#R7
(1676387612.212148) vcan0 124#R7
(1676387612.212258) vcan0 124#R7
(1676387612.212366) vcan0 124#R7
(1676387612.212476) vcan0 124#R7
(1676387612.212580) vcan0 124#R7
(1676387612.212691) vcan0 124#R7
(1676387612.212798) vcan0 124#R7
(1676387612.212906) vcan0 124#R7
(1676387612.213013) vcan0 124#R7
(1676387612.213124) vcan0 124#R7
(1676387612.213227) vcan0 124#R7
(1676387612.213338) vcan0 124#R7
(1676387612.213443) vcan0 124#R7
(1676387612.213555) vcan0 124#R7
(1676387612.213659) vcan0 124#R7
(1676387612.213768) vcan0 124#R7
(1676387612.213877) vcan0 124#R7
(1676387612.213985) vcan0 124#R7
(1676387612.214092) vcan0 124#R7
(1676387612.214201) vcan0 124#R7
(1676387612.214308) vcan0 124#R7
(1676387612.214416) vcan0 124#R7
(1676387612.214527) vcan0 124#R7
(1676387612.215787) vcan0 220#R7
(1676387613.220660) vcan0 124#R8
(1676387613.221450) vcan0 00249AF7#9249662492052492
(1676387613.221696) vcan0 124#9249662492052492
(1676387613.221792) vcan0 124#9249662492052492
(1676387613.221895) vcan0 124#9249662492052492
(1676387613.221998) vcan0 124#9249662492052492
(1676387613.222100) vcan0 124#9249662492052492
(1676387613.222204) vcan0 124#9249662492052492
(1676387613.222315) vcan0 124#9249662492052492
(1676387613.222410) vcan0 124#9249662492052492
(1676387613.222514) vcan0 124#9249662492052492
(1676387613.222617) vcan0 124#9249662492052492
(1676387613.222721) vcan0 124#9249662492052492
(1676387613.222826) vcan0 124#9249662492052492
(1676387613.222930) vcan0 124#9249662492052492
(1676387613.223038) vcan0 124#9249662492052492
(1676387613.223140) vcan0 124#9249662492052492
(1676387613.223244) vcan0 124#9249662492052492
(1676387613.223345) vcan0 124#9249662492052492
(1676387613.223450) vcan0 124#9249662492052492
(1676387613.223563) vcan0 124#9249662492052492
(1676387613.223653) vcan0 124#9249662492052492
(1676387613.223763) vcan0 124#9249662492052492
(1676387613.223863) vcan0 124#9249662492052492
(1676387613.223964) vcan0 124#9249662492052492
(1676387613.224068) vcan0 124#9249662492052492
(1676387613.224170) vcan0 124#9249662492052492
(1676387613.224272) vcan0 124#9249662492052492
(1676387613.224380) vcan0 124#9249662492052492
(1676387613.224480) vcan0 124#9249662492052492
(1676387613.224580) vcan0 124#9249662492052492
(1676387613.224683) vcan0 124#9249662492052492
(1676387613.224790) vcan0 124#9249662492052492
(1676387613.224890) vcan0 124#9249662492052492
(1676387613.240803) vcan0 220#9249662492052492
(1676387614.231087) vcan0 124#R8
(1676387614.231613) vcan0 124#9249662492052492
(1676387614.231762) vcan0 49F#9249662492052492
(1676387614.232798) vcan0 124#R8
(1676387614.232865) vcan0 240#R8
(1676387614.232987) vcan0 124#9249662492052492
(1676387614.233670) vcan0 261#2492602492052492
(1676387614.240757) vcan0 0A0#2492602492052492
(1676387614.252180) vcan0 124#R8
(1676387614.265775) vcan0 220#R8
(1676387614.272176) vcan0 124#R8
(1676387614.272232) vcan0 21F#R8
(1676387614.290738) vcan0 7A0#R8
(1676387614.292529) vcan0 124#R8
(1676387614.292762) vcan0 124#24926024920524
(1676387614.292826) vcan0 124#24926024920524
(1676387614.292968) vcan0 124#24926024920524
(1676387614.293068) vcan0 124#24926024920524
(1676387614.293181) vcan0 124#24926024920524
(1676387614.293287) vcan0 124#24926024920524
(1676387614.293397) vcan0 124#24926024920524
(1676387614.293509) vcan0 124#24926024920524
(1676387614.293620) vcan0 124#24926024920524
(1676387614.293726) vcan0 124#24926024920524
(1676387614.293830) vcan0 124#24926024920524
(1676387614.293941) vcan0 124#24926024920524
(1676387614.294050) vcan0 124#24926024920524
(1676387614.294159) vcan0 124#24926024920524
(1676387614.294267) vcan0 124#24926024920524
(1676387614.294377) vcan0 124#24926024920524
(1676387614.294484) vcan0 124#24926024920524
(1676387614.294596) vcan0 124#24926024920524
(1676387614.294705) vcan0 124#24926024920524
(1676387614.294815) vcan0 124#24926024920524
(1676387614.294919) vcan0 124#24926024920524
(1676387614.295030) vcan0 124#24926024920524
(1676387614.295139) vcan0 124#24926024920524
(1676387614.295247) vcan0 124#24926024920524
(1676387614.295359) vcan0 124#24926024920524
(1676387614.295466) vcan0 124#24926024920524
(1676387614.295575) vcan0 124#24926024920524
(1676387614.295689) vcan0 124#24926024920524
(1676387614.295793) vcan0 124#24926024920524
(1676387614.295903) vcan0 124#24926024920524
(1676387614.296010) vcan0 124#24926024920524
(1676387614.296125) vcan0 124#24926024920524
(1676387614.315770) vcan0 220#24926024920524
(1676387615.302545) vcan0 124#R8
(1676387615.302734) vcan0 10124CB7#2492602492052492
(1676387615.302969) vcan0 261#4924
(1676387615.303431) vcan0 610#4924
(1676387615.303496) vcan0 65F#4924
(1676387615.303656) vcan0 261#4924
(1676387615.312975) vcan0 124#R8
(1676387615.313056) vcan0 240#R8
(1676387615.313162) vcan0 124#49244924DF05
(1676387615.313332) vcan0 261#49244924DF249261
(1676387615.315711) vcan0 0A0#49244924DF249261
(1676387615.332548) vcan0 124#R2
(1676387615.340724) vcan0 220#R2
(1676387615.352628) vcan0 124#R
(1676387615.365728) vcan0 220#R
(1676387615.373029) vcan0 124#R8
(1676387615.373418) vcan0 261#24924924DF249261
(1676387615.390713) vcan0 0A0#24924924DF249261
(1676387615.392559) vcan0 124#R8
(1676387615.412577) vcan0 124#R
(1676387615.415748) vcan0 220#R
(1676387615.433046) vcan0 124#R
(1676387615.433258) vcan0 124#24924924DF249261
(1676387615.433391) vcan0 261#24922492DF249261
(1676387615.440711) vcan0 0A0#24922492DF249261
(1676387615.452631) vcan0 124#R8
(1676387615.465721) vcan0 220#R8
(1676387615.472680) vcan0 124#R8
(1676387615.490706) vcan0 220#R8
(1676387615.493078) vcan0 124#R8
(1676387615.493143) vcan0 240#R8
(1676387615.493201) vcan0 124#24922492DF249261
(1676387615.493257) vcan0 11F#24922492DF249261
(1676387615.512706) vcan0 124#R8
(1676387615.512770) vcan0 09F#R8
(1676387615.515707) vcan0 7A0#R8
(1676387615.532701) vcan0 124#R8
(1676387615.540692) vcan0 220#R8
(1676387615.553096) vcan0 124#R8
(1676387615.553162) vcan0 21F#R8
(1676387615.553273) vcan0 124#24922492DF249261
(1676387615.553450) vcan0 261#92495D92
(1676387615.565717) vcan0 0A0#92495D92
(1676387615.572725) vcan0 124#R
(1676387615.590704) vcan0 220#R
(1676387615.592641) vcan0 124#R6
(1676387615.613147) vcan0 124#R8
(1676387615.613562) vcan0 124#4927
(1676387615.613627) vcan0 261#49275D92DF249261
(1676387615.615722) vcan0 0A0#49275D92DF249261
(1676387615.632678) vcan0 124#R8
(1676387615.640702) vcan0 220#R8
(1676387615.652715) vcan0 124#R2
(1676387615.665713) vcan0 220#R2
(1676387615.673134) vcan0 124#R
(1676387615.673335) vcan0 124#49275D92DF249261
(1676387615.673483) vcan0 12124CA7#49275D92DF249261
(1676387615.690698) vcan0 092653A0#49275D92DF249261
(1676387615.692753) vcan0 124#R8
(1676387615.692819) vcan0 2CF#R8
(1676387615.712793) vcan0 124#R8
(1676387615.715709) vcan0 220#R8
(1676387615.733187) vcan0 124#R
(1676387615.733278) vcan0 19F#R
(1676387615.733429) vcan0 0919FD47#
(1676387615.740689) vcan0 0CFEA3A0#
(1676387615.752816) vcan0 124#R
(1676387615.765712) vcan0 220#R
(1676387615.772838) vcan0 124#R8
(1676387615.790696) vcan0 220#R8
(1676387615.793194) vcan0 124#R8
(1676387615.793326) vcan0 40F#R8
(1676387615.793575) vcan0 261#92495F92DF249261
(1676387615.812776) vcan0 124#R8
(1676387615.815722) vcan0 220#R8
(1676387615.832776) vcan0 124#R8
(1676387615.840682) vcan0 220#R8
(1676387615.853221) vcan0 124#R8
(1676387615.853306) vcan0 240#R8
(1676387615.853461) vcan0 124#4924
(1676387615.865696) vcan0 220#4924
(1676387615.872864) vcan0 124#R8
(1676387615.890665) vcan0 220#R8
(1676387615.892762) vcan0 124#R
(1676387615.913227) vcan0 124#R
(1676387615.913645) vcan0 261#92496692DF249261
(1676387615.915689) vcan0 0A0#92496692DF249261
(1676387615.932912) vcan0 124#R8
(1676387615.940674) vcan0 220#R8
(1676387615.952885) vcan0 124#R8
(1676387615.965685) vcan0 220#R8
(1676387615.973271) vcan0 124#R2
(1676387615.973334) vcan0 240#R2
(1676387615.973392) vcan0 00920197#9249
(1676387615.973492) vcan0 100CBEDF#9249
(1676387615.990669) vcan0 065F6FA0#9249
(1676387615.992899) vcan0 124#R
(1676387616.012952) vcan0 124#R8
(1676387616.015724) vcan0 220#R8
(1676387616.033295) vcan0 124#R8
(1676387616.033363) vcan0 240#R8
(1676387616.033755) vcan0 261#
(1676387616.040677) vcan0 0A0#
(1676387616.052945) vcan0 124#R
(1676387616.065697) vcan0 220#R
(1676387616.072853) vcan0 124#R
(1676387616.090659) vcan0 220#R
(1676387616.093356) vcan0 124#R8
(1676387616.093419) vcan0 240#R8
(1676387616.093479) vcan0 01240727#92496692DF249261
(1676387616.093679) vcan0 261#2492AB92DF249261
(1676387616.112954) vcan0 124#R8
(1676387616.115680) vcan0 220#R8
(1676387616.133014) vcan0 124#R8
(1676387616.140684) vcan0 220#R8
(1676387616.153370) vcan0 124#R8
(1676387616.153434) vcan0 240#R8
(1676387616.153492) vcan0 61F#R8
(1676387616.153595) vcan0 56F#R8
(1676387616.165691) vcan0 7A0#R8
(1676387616.172984) vcan0 124#R8
(1676387616.190660) vcan0 220#R8
(1676387616.192936) vcan0 124#R8
(1676387616.213358) vcan0 124#R
(1676387616.213444) vcan0 240#R
(1676387616.213502) vcan0 124#2492AB92DF2492
(1676387616.213734) vcan0 261#4924
(1676387616.215691) vcan0 0A0#4924
(1676387616.233003) vcan0 124#R
(1676387616.240659) vcan0 220#R
(1676387616.252980) vcan0 124#R8
(1676387616.265690) vcan0 220#R8
(1676387616.273395) vcan0 124#R8
(1676387616.273459) vcan0 240#R8
(1676387616.273567) vcan0 124#4924AB92DF24
(1676387616.273678) vcan0 261#
(1676387616.290680) vcan0 0A0#
(1676387616.293073) vcan0 124#R2
(1676387616.312977) vcan0 124#R
(1676387616.315696) vcan0 220#R
(1676387616.333451) vcan0 124#R8
(1676387616.334366) vcan0 124#2490AF92DF249261
(1676387616.334458) vcan0 261#2490AF2492249261
(1676387616.340669) vcan0 0A0#2490AF2492249261
(1676387616.352979) vcan0 124#R8
(1676387616.365674) vcan0 220#R8
(1676387616.372984) vcan0 124#R
(1676387616.390641) vcan0 220#R
(1676387616.393441) vcan0 124#R
(1676387616.393525) vcan0 240#R
(1676387616.393584) vcan0 124#2490AF2492249261
(1676387616.393772) vcan0 261#2490AF2492249261
(1676387616.413124) vcan0 124#R8
(1676387616.415732) vcan0 220#R8
(1676387616.433019) vcan0 124#R8
(1676387616.440660) vcan0 220#R8
(1676387616.453516) vcan0 124#R8
(1676387616.453586) vcan0 240#R8
(1676387616.454276) vcan0 01240AA7#2490AF2492249261
(1676387616.454438) vcan0 261#2490AF24
(1676387616.465676) vcan0 0A0#2490AF24
(1676387616.473141) vcan0 124#R8
(1676387616.490652) vcan0 220#R8
(1676387616.493096) vcan0 124#R8
(1676387616.513537) vcan0 124#R8
(1676387616.513603) vcan0 240#R8
(1676387616.513854) vcan0 261#92495924
(1676387616.515683) vcan0 0A0#92495924
(1676387616.533053) vcan0 124#R
(1676387616.540653) vcan0 220#R
(1676387616.553131) vcan0 124#R
(1676387616.565676) vcan0 220#R
(1676387616.573537) vcan0 124#R8
(1676387616.573719) vcan0 124#9249592492249261
(1676387616.573814) vcan0 124#9249592492249261
(1676387616.573925) vcan0 124#9249592492249261
(1676387616.574034) vcan0 124#9249592492249261
(1676387616.574149) vcan0 124#9249592492249261
(1676387616.574256) vcan0 124#9249592492249261
(1676387616.574377) vcan0 124#9249592492249261
(1676387616.574476) vcan0 124#9249592492249261
(1676387616.574587) vcan0 124#9249592492249261
(1676387616.574699) vcan0 124#9249592492249261
(1676387616.574806) vcan0 124#9249592492249261
(1676387616.574918) vcan0 124#9249592492249261
(1676387616.575024) vcan0 124#9249592492249261
(1676387616.575139) vcan0 124#9249592492249261
(1676387616.575247) vcan0 124#9249592492249261
(1676387616.575357) vcan0 124#9249592492249261
(1676387616.575472) vcan0 124#9249592492249261
(1676387616.575579) vcan0 124#9249592492249261
(1676387616.575696) vcan0 124#9249592492249261
(1676387616.575800) vcan0 124#9249592492249261
(1676387616.575918) vcan0 124#9249592492249261
(1676387616.576022) vcan0 124#9249592492249261
(1676387616.576138) vcan0 124#9249592492249261
(1676387616.576248) vcan0 124#9249592492249261
(1676387616.576363) vcan0 124#9249592492249261
(1676387616.576469) vcan0 124#9249592492249261
(1676387616.576575) vcan0 124#9249592492249261
(1676387616.576686) vcan0 124#9249592492249261
(1676387616.576796) vcan0 124#9249592492249261
(1676387616.576906) vcan0 124#9249592492249261
(1676387616.577014) vcan0 124#9249592492249261
(1676387616.577125) vcan0 124#9249592492249261
(1676387616.590646) vcan0 220#9249592492249261
